RTDS Simulation, 0,1999
7,6A,1D
1,IAvnCT,,,Amps,1.65401E-5,-0.456014,0,0,65535,1.0,1.0,P
2,IBvnCT,,,Amps,5.41832E-5,-2.54531,0,0,65535,1.0,1.0,P
3,ICvnCT,,,Amps,1.38301E-4,-4.03333,0,0,65535,1.0,1.0,P
4,IAnnCT,,,Amps,1.65401E-5,-0.627942,0,0,65535,1.0,1.0,P
5,IBnnCT,,,Amps,5.41832E-5,-1.00559,0,0,65535,1.0,1.0,P
6,ICnnCT,,,Amps,1.38301E-4,-5.03021,0,0,65535,1.0,1.0,P
1,LG_FLT,0,,0
50.0
1
1000.0,2000
02/03/2020,16:59:29.638000
02/03/2020,16:59:30.638000
ASCII
1
1,0,27569,46834,29135,37965,18701,36399,0
2,1000,27570,46833,29135,37965,18701,36399,0
3,2000,27570,46833,29135,37964,18701,36399,0
4,3000,27570,46833,29135,37964,18701,36399,0
5,4000,27570,46833,29135,37964,18701,36399,0
6,5000,27570,46833,29135,37964,18701,36399,0
7,6000,27570,46834,29135,37964,18700,36399,0
8,7000,27570,46834,29135,37964,18700,36399,0
9,8000,27570,46834,29135,37964,18700,36400,0
10,9000,27570,46835,29135,37964,18699,36400,0
11,10000,27570,46835,29135,37964,18699,36400,0
12,11000,27570,46836,29135,37964,18698,36400,0
13,12000,27570,46836,29135,37964,18698,36399,0
14,13000,27570,46836,29135,37965,18698,36399,0
15,14000,27569,46836,29135,37965,18698,36399,0
16,15000,27569,46836,29135,37965,18698,36399,0
17,16000,27569,46836,29135,37965,18698,36399,0
18,17000,27569,46836,29135,37965,18698,36399,0
19,18000,27569,46836,29135,37965,18698,36399,0
20,19000,27569,46835,29136,37965,18699,36399,0
21,20000,27569,46835,29136,37965,18699,36399,0
22,21000,27570,46835,29136,37965,18699,36398,0
23,22000,27570,46835,29136,37964,18699,36399,0
24,23000,27570,46835,29136,37964,18699,36399,0
25,24000,27570,46835,29135,37964,18699,36399,0
26,25000,27570,46835,29135,37964,18699,36399,0
27,26000,27570,46835,29135,37964,18699,36399,0
28,27000,27570,46836,29135,37964,18698,36399,0
29,28000,27570,46836,29135,37964,18698,36399,0
30,29000,27570,46837,29135,37964,18698,36399,0
31,30000,27570,46837,29135,37964,18697,36399,0
32,31000,27570,46837,29135,37964,18697,36399,0
33,32000,27570,46838,29135,37964,18696,36399,0
34,33000,27570,46838,29135,37965,18696,36399,0
35,34000,27569,46838,29135,37965,18696,36399,0
36,35000,27569,46838,29135,37965,18696,36399,0
37,36000,27569,46838,29136,37965,18696,36399,0
38,37000,27569,46838,29136,37965,18696,36398,0
39,38000,27569,46837,29136,37965,18697,36398,0
40,39000,27569,46837,29136,37965,18697,36398,0
41,40000,27569,46837,29136,37965,18697,36398,0
42,41000,27570,46837,29136,37965,18697,36398,0
43,42000,27570,46837,29136,37964,18698,36398,0
44,43000,27570,46836,29136,37964,18698,36398,0
45,44000,27570,46837,29136,37964,18698,36398,0
46,45000,27570,46837,29136,37964,18697,36398,0
47,46000,27570,46837,29136,37964,18697,36399,0
48,47000,27570,46837,29135,37964,18697,36399,0
49,48000,27570,46838,29135,37964,18696,36399,0
50,49000,27570,46838,29135,37964,18696,36399,0
51,50000,27570,46839,29135,37964,18695,36399,0
52,51000,27570,46839,29135,37964,18695,36399,0
53,52000,27570,46839,29135,37964,18695,36399,0
54,53000,27570,46840,29136,37965,18695,36399,0
55,54000,27569,46840,29136,37965,18694,36398,0
56,55000,27569,46840,29136,37965,18694,36398,0
57,56000,27569,46840,29136,37965,18695,36398,0
58,57000,27569,46839,29136,37965,18695,36398,0
59,58000,27569,46839,29136,37965,18695,36398,0
60,59000,27569,46839,29136,37965,18695,36398,0
61,60000,27569,46839,29136,37965,18696,36398,0
62,61000,27570,46838,29136,37964,18696,36398,0
63,62000,27570,46838,29136,37964,18696,36398,0
64,63000,27570,46838,29136,37964,18696,36398,0
65,64000,27570,46838,29136,37964,18696,36398,0
66,65000,27570,46838,29136,37964,18696,36398,0
67,66000,27570,46839,29136,37964,18695,36398,0
68,67000,27570,46839,29136,37964,18695,36398,0
69,68000,27570,46839,29136,37964,18695,36398,0
70,69000,27570,46840,29136,37964,18694,36398,0
71,70000,27570,46840,29136,37964,18694,36398,0
72,71000,27570,46841,29136,37964,18693,36398,0
73,72000,27570,46841,29136,37964,18693,36398,0
74,73000,27570,46841,29136,37965,18693,36398,0
75,74000,27569,46841,29136,37965,18693,36398,0
76,75000,27569,46841,29136,37965,18693,36398,0
77,76000,27569,46841,29136,37965,18693,36398,0
78,77000,27569,46841,29136,37965,18693,36398,0
79,78000,27569,46841,29137,37965,18693,36397,0
80,79000,27569,46840,29137,37965,18694,36397,0
81,80000,27569,46840,29137,37965,18694,36397,0
82,81000,27570,46840,29137,37964,18694,36397,0
83,82000,27570,46840,29137,37964,18694,36397,0
84,83000,27570,46840,29137,37964,18694,36397,0
85,84000,27570,46840,29137,37964,18694,36398,0
86,85000,27570,46840,29136,37964,18694,36398,0
87,86000,27570,46840,29136,37964,18694,36398,0
88,87000,27570,46841,29136,37964,18693,36398,0
89,88000,27570,46841,29136,37964,18693,36398,0
90,89000,27570,46842,29136,37964,18693,36398,0
91,90000,27570,46842,29136,37964,18692,36398,0
92,91000,27570,46842,29136,37964,18692,36398,0
93,92000,27570,46843,29136,37964,18691,36398,0
94,93000,27570,46843,29136,37965,18691,36398,0
95,94000,27569,46843,29136,37965,18691,36398,0
96,95000,27569,46843,29137,37965,18691,36398,0
97,96000,27569,46843,29137,37965,18691,36397,0
98,97000,27569,46843,29137,37965,18692,36397,0
99,98000,27569,46842,29137,37965,18692,36397,0
100,99000,27569,46842,29137,37965,18692,36397,0
101,100000,27569,46842,29137,37965,18692,36397,0
102,101000,27570,46842,29137,37964,18693,36397,0
103,102000,27570,46841,29137,37964,18693,36397,0
104,103000,27570,46841,29137,37964,18693,36397,0
105,104000,27570,46841,29137,37964,18693,36397,0
106,105000,27570,46842,29137,37964,18692,36397,0
107,106000,27570,46842,29137,37964,18692,36397,0
108,107000,27570,46842,29137,37964,18692,36398,0
109,108000,27570,46843,29136,37964,18691,36398,0
110,109000,27570,46843,29136,37964,18691,36398,0
111,110000,27570,46844,29136,37964,18691,36398,0
112,111000,27570,46844,29136,37964,18690,36398,0
113,112000,27570,46844,29137,37964,18690,36398,0
114,113000,27570,46844,29137,37965,18690,36397,0
115,114000,27569,46845,29137,37965,18690,36397,0
116,115000,27569,46845,29137,37965,18690,36397,0
117,116000,27569,46844,29137,37965,18690,36397,0
118,117000,27569,46844,29137,37965,18690,36397,0
119,118000,27569,46844,29137,37965,18690,36397,0
120,119000,27569,46844,29137,37965,18690,36397,0
121,120000,27569,46843,29137,37965,18691,36397,0
122,121000,27570,46843,29137,37964,18691,36397,0
123,122000,27570,46843,29137,37964,18691,36397,0
124,123000,27570,46843,29137,37964,18691,36397,0
125,124000,27570,46843,29137,37964,18691,36397,0
126,125000,27570,46843,29137,37964,18691,36397,0
127,126000,27570,46843,29137,37964,18691,36397,0
128,127000,27570,46844,29137,37964,18690,36397,0
129,128000,27570,46844,29137,37964,18690,36397,0
130,129000,27570,46845,29137,37964,18689,36397,0
131,130000,27570,46845,29137,37964,18689,36397,0
132,131000,27570,46846,29137,37964,18689,36397,0
133,132000,27570,46846,29137,37964,18688,36397,0
134,133000,27570,46846,29137,37965,18688,36397,0
135,134000,27569,46846,29137,37965,18688,36397,0
136,135000,27569,46846,29137,37965,18688,36397,0
137,136000,27569,46846,29137,37965,18688,36397,0
138,137000,27569,46846,29138,37965,18688,36397,0
139,138000,27569,46846,29138,37965,18689,36396,0
140,139000,27569,46845,29138,37965,18689,36396,0
141,140000,27569,46845,29138,37965,18689,36396,0
142,141000,27570,46845,29138,37964,18689,36396,0
143,142000,27570,46845,29138,37964,18690,36396,0
144,143000,27570,46845,29138,37964,18690,36396,0
145,144000,27570,46845,29138,37964,18689,36396,0
146,145000,27570,46845,29138,37964,18689,36397,0
147,146000,27570,46845,29137,37964,18689,36397,0
148,147000,27570,46845,29137,37964,18689,36397,0
149,148000,27570,46846,29137,37964,18688,36397,0
150,149000,27570,46846,29137,37964,18688,36397,0
151,150000,27570,46847,29137,37964,18687,36397,0
152,151000,27570,46847,29137,37964,18687,36397,0
153,152000,27570,46847,29137,37964,18687,36397,0
154,153000,27570,46848,29137,37965,18687,36397,0
155,154000,27569,46848,29137,37965,18686,36397,0
156,155000,27569,46848,29138,37965,18686,36396,0
157,156000,27569,46848,29138,37965,18687,36396,0
158,157000,27569,46847,29138,37965,18687,36396,0
159,158000,27569,46847,29138,37965,18687,36396,0
160,159000,27569,46847,29138,37965,18687,36396,0
161,160000,27569,46847,29138,37965,18688,36396,0
162,161000,27570,46846,29138,37964,18688,36396,0
163,162000,27570,46846,29138,37964,18688,36396,0
164,163000,27570,46846,29138,37964,18688,36396,0
165,164000,27570,46846,29138,37964,18688,36396,0
166,165000,27570,46846,29138,37964,18688,36396,0
167,166000,27570,46847,29138,37964,18687,36396,0
168,167000,27570,46847,29138,37964,18687,36396,0
169,168000,27570,46847,29138,37964,18687,36397,0
170,169000,27570,46848,29138,37964,18686,36397,0
171,170000,27570,46848,29138,37964,18686,36397,0
172,171000,27570,46849,29138,37964,18685,36397,0
173,172000,27570,46849,29138,37964,18685,36397,0
174,173000,27570,46849,29138,37965,18685,36396,0
175,174000,27569,46849,29138,37965,18685,36396,0
176,175000,27569,46849,29138,37965,18685,36396,0
177,176000,27569,46849,29138,37965,18685,36396,0
178,177000,27569,46849,29138,37965,18685,36396,0
179,178000,27569,46849,29138,37965,18685,36396,0
180,179000,27569,46848,29139,37965,18686,36396,0
181,180000,27569,46848,29139,37965,18686,36396,0
182,181000,27570,46848,29139,37964,18686,36396,0
183,182000,27570,46848,29139,37964,18686,36396,0
184,183000,27570,46848,29138,37964,18686,36396,0
185,184000,27570,46848,29138,37964,18686,36396,0
186,185000,27570,46848,29138,37964,18686,36396,0
187,186000,27570,46848,29138,37964,18686,36396,0
188,187000,27570,46849,29138,37964,18686,36396,0
189,188000,27570,46849,29138,37964,18685,36396,0
190,189000,27570,46849,29138,37964,18685,36396,0
191,190000,27570,46850,29138,37964,18684,36396,0
192,191000,27570,46850,29138,37964,18684,36396,0
193,192000,27570,46850,29138,37964,18684,36396,0
194,193000,27570,46851,29138,37965,18683,36396,0
195,194000,27569,46851,29138,37965,18683,36396,0
196,195000,27569,46851,29138,37965,18683,36396,0
197,196000,27569,46851,29138,37965,18683,36396,0
198,197000,27569,46850,29139,37965,18684,36395,0
199,198000,27569,46850,29139,37965,18684,36395,0
200,199000,27569,46850,29139,37965,18684,36395,0
201,200000,27569,46850,29139,37965,18685,36395,0
202,201000,27570,46849,29139,37964,18685,36395,0
203,202000,27570,46849,29139,37964,18685,36395,0
204,203000,27570,46849,29139,37964,18685,36395,0
205,204000,27570,46849,29139,37964,18685,36395,0
206,205000,27570,46849,29139,37964,18685,36396,0
207,206000,27570,46850,29138,37964,18684,36396,0
208,207000,27570,46850,29138,37964,18684,36396,0
209,208000,27570,46850,29138,37964,18684,36396,0
210,209000,27570,46851,29138,37964,18683,36396,0
211,210000,27570,46851,29138,37964,18683,36396,0
212,211000,27570,46852,29138,37964,18682,36396,0
213,212000,27570,46852,29138,37964,18682,36396,0
214,213000,27570,46852,29138,37965,18682,36396,0
215,214000,27569,46852,29139,37965,18682,36396,0
216,215000,27569,46852,29139,37965,18682,36395,0
217,216000,27569,46852,29139,37965,18682,36395,0
218,217000,27569,46852,29139,37965,18682,36395,0
219,218000,27569,46852,29139,37965,18682,36395,0
220,219000,27569,46851,29139,37965,18683,36395,0
221,220000,27569,46851,29139,37965,18683,36395,0
222,221000,27570,46851,29139,37964,18683,36395,0
223,222000,27570,46851,29139,37964,18683,36395,0
224,223000,27570,46851,29139,37964,18683,36395,0
225,224000,27570,46851,29139,37964,18683,36395,0
226,225000,27570,46851,29139,37964,18683,36395,0
227,226000,27570,46851,29139,37964,18683,36395,0
228,227000,27570,46852,29139,37964,18683,36395,0
229,228000,27570,46852,29139,37964,18682,36395,0
230,229000,27570,46852,29139,37964,18682,36396,0
231,230000,27570,46853,29139,37964,18681,36396,0
232,231000,27570,46853,29139,37964,18681,36396,0
233,232000,27570,46853,29139,37964,18681,36395,0
234,233000,27570,46854,29139,37965,18680,36395,0
235,234000,27569,46854,29139,37965,18680,36395,0
236,235000,27569,46854,29139,37965,18680,36395,0
237,236000,27569,46854,29139,37965,18680,36395,0
238,237000,27569,46853,29139,37965,18681,36395,0
239,238000,27569,46853,29139,37965,18681,36395,0
240,239000,27569,46853,29140,37965,18681,36395,0
241,240000,27569,46853,29140,37965,18682,36395,0
242,241000,27570,46852,29140,37964,18682,36395,0
243,242000,27570,46852,29140,37964,18682,36395,0
244,243000,27570,46852,29139,37964,18682,36395,0
245,244000,27570,46852,29139,37964,18682,36395,0
246,245000,27570,46852,29139,37964,18682,36395,0
247,246000,27570,46853,29139,37964,18681,36395,0
248,247000,27570,46853,29139,37964,18681,36395,0
249,248000,27570,46853,29139,37964,18681,36395,0
250,249000,27570,46854,29139,37964,18680,36395,0
251,250000,27570,46854,29139,37964,18680,36395,0
252,251000,27570,46855,29139,37964,18679,36395,0
253,252000,27570,46855,29139,37964,18679,36395,0
254,253000,27570,46855,29139,37965,18679,36395,0
255,254000,27569,46855,29139,37965,18679,36395,0
256,255000,27569,46855,29139,37965,18679,36395,0
257,256000,27569,46855,29140,37965,18679,36395,0
258,257000,27569,46855,29140,37965,18679,36394,0
259,258000,27569,46855,29140,37965,18679,36394,0
260,259000,27569,46854,29140,37965,18680,36394,0
261,260000,27569,46854,29140,37965,18680,36394,0
262,261000,27570,46854,29140,37964,18680,36394,0
263,262000,27570,46854,29140,37964,18680,36394,0
264,263000,27570,46854,29140,37964,18680,36394,0
265,264000,27570,46854,29140,37964,18680,36394,0
266,265000,27570,46854,29140,37964,18680,36394,0
267,266000,27570,46854,29139,37964,18680,36395,0
268,267000,27570,46854,29139,37964,18680,36395,0
269,268000,27570,46855,29139,37964,18679,36395,0
270,269000,27570,46855,29139,37964,18679,36395,0
271,270000,27570,46856,29139,37964,18678,36395,0
272,271000,27570,46856,29139,37964,18678,36395,0
273,272000,27570,46856,29139,37964,18678,36395,0
274,273000,27570,46857,29139,37965,18677,36395,0
275,274000,27569,46857,29140,37965,18677,36395,0
276,275000,27569,46857,29140,37965,18677,36394,0
277,276000,27569,46857,29140,37965,18678,36394,0
278,277000,27569,46856,29140,37965,18678,36394,0
279,278000,27569,46856,29140,37965,18678,36394,0
280,279000,27569,46856,29140,37965,18678,36394,0
281,280000,27569,46856,29140,37965,18679,36394,0
282,281000,27570,46855,29140,37964,18679,36394,0
283,282000,27570,46855,29140,37964,18679,36394,0
284,283000,27570,46855,29140,37964,18679,36394,0
285,284000,27570,46855,29140,37964,18679,36394,0
286,285000,27570,46855,29140,37964,18679,36394,0
287,286000,27570,46856,29140,37964,18679,36394,0
288,287000,27570,46856,29140,37964,18678,36394,0
289,288000,27570,46856,29140,37964,18678,36394,0
290,289000,27570,46857,29140,37964,18677,36395,0
291,290000,27570,46857,29140,37964,18677,36395,0
292,291000,27570,46858,29140,37964,18677,36395,0
293,292000,27570,46858,29140,37964,18676,36394,0
294,293000,27570,46858,29140,37965,18676,36394,0
295,294000,27569,46858,29140,37965,18676,36394,0
296,295000,27569,46858,29140,37965,18676,36394,0
297,296000,27569,46858,29140,37965,18676,36394,0
298,297000,27569,46858,29140,37965,18676,36394,0
299,298000,27569,46858,29140,37965,18677,36394,0
300,299000,27569,46857,29141,37965,18677,36394,0
301,300000,27569,46857,29141,37965,18677,36394,0
302,301000,27570,46857,29141,37964,18677,36394,0
303,302000,27570,46857,29141,37964,18678,36394,0
304,303000,27570,46857,29140,37964,18678,36394,0
305,304000,27570,46857,29140,37964,18678,36394,0
306,305000,27570,46857,29140,37964,18677,36394,0
307,306000,27570,46857,29140,37964,18677,36394,0
308,307000,27570,46857,29140,37964,18677,36394,0
309,308000,27570,46858,29140,37964,18676,36394,0
310,309000,27570,46858,29140,37964,18676,36394,0
311,310000,27570,46859,29140,37964,18675,36394,0
312,311000,27570,46859,29140,37964,18675,36394,0
313,312000,27570,46859,29140,37964,18675,36394,0
314,313000,27570,46860,29140,37965,18675,36394,0
315,314000,27569,46860,29140,37965,18675,36394,0
316,315000,27569,46860,29140,37965,18675,36394,0
317,316000,27569,46859,29140,37965,18675,36394,0
318,317000,27569,46859,29141,37965,18675,36393,0
319,318000,27569,46859,29141,37965,18675,36393,0
320,319000,27569,46859,29141,37965,18675,36393,0
321,320000,27569,46858,29141,37965,18676,36393,0
322,321000,27570,46858,29141,37964,18676,36393,0
323,322000,27570,46858,29141,37964,18676,36393,0
324,323000,27570,46858,29141,37964,18676,36393,0
325,324000,27570,46858,29141,37964,18676,36393,0
326,325000,27570,46858,29141,37964,18676,36394,0
327,326000,27570,46858,29140,37964,18676,36394,0
328,327000,27570,46859,29140,37964,18675,36394,0
329,328000,27570,46859,29140,37964,18675,36394,0
330,329000,27570,46860,29140,37964,18674,36394,0
331,330000,27570,46860,29140,37964,18674,36394,0
332,331000,27570,46860,29140,37964,18674,36394,0
333,332000,27570,46861,29140,37964,18673,36394,0
334,333000,27570,46861,29140,37965,18673,36394,0
335,334000,27569,46861,29141,37965,18673,36394,0
336,335000,27569,46861,29141,37965,18673,36393,0
337,336000,27569,46861,29141,37965,18673,36393,0
338,337000,27569,46861,29141,37965,18673,36393,0
339,338000,27569,46860,29141,37965,18674,36393,0
340,339000,27569,46860,29141,37965,18674,36393,0
341,340000,27569,46860,29141,37965,18674,36393,0
342,341000,27570,46860,29141,37964,18675,36393,0
343,342000,27570,46859,29141,37964,18675,36393,0
344,343000,27570,46859,29141,37964,18675,36393,0
345,344000,27570,46859,29141,37964,18675,36393,0
346,345000,27570,46860,29141,37964,18675,36393,0
347,346000,27570,46860,29141,37964,18674,36393,0
348,347000,27570,46860,29141,37964,18674,36393,0
349,348000,27570,46861,29141,37964,18673,36394,0
350,349000,27570,46861,29141,37964,18673,36394,0
351,350000,27570,46861,29140,37964,18673,36394,0
352,351000,27570,46862,29141,37964,18672,36394,0
353,352000,27570,46862,29141,37964,18672,36394,0
354,353000,27570,46862,29141,37965,18672,36393,0
355,354000,27569,46862,29141,37965,18672,36393,0
356,355000,27569,46862,29141,37965,18672,36393,0
357,356000,27569,46862,29141,37965,18672,36393,0
358,357000,27569,46862,29141,37965,18672,36393,0
359,358000,27569,46862,29141,37965,18672,36393,0
360,359000,27569,46861,29141,37965,18673,36393,0
361,360000,27569,46861,29142,37965,18673,36393,0
362,361000,27570,46861,29142,37964,18673,36393,0
363,362000,27570,46861,29142,37964,18673,36393,0
364,363000,27570,46861,29141,37964,18673,36393,0
365,364000,27570,46861,29141,37964,18673,36393,0
366,365000,27570,46861,29141,37964,18673,36393,0
367,366000,27570,46861,29141,37964,18673,36393,0
368,367000,27570,46862,29141,37964,18673,36393,0
369,368000,27570,46862,29141,37964,18672,36393,0
370,369000,27570,46862,29141,37964,18672,36393,0
371,370000,27570,46863,29141,37964,18671,36393,0
372,371000,27570,46863,29141,37964,18671,36393,0
373,372000,27570,46864,29141,37964,18671,36393,0
374,373000,27570,46864,29141,37965,18670,36393,0
375,374000,27569,46864,29141,37965,18670,36393,0
376,375000,27569,46864,29141,37965,18670,36393,0
377,376000,27569,46864,29141,37965,18670,36393,0
378,377000,27569,46863,29142,37965,18671,36393,0
379,378000,27569,46863,29142,37965,18671,36392,0
380,379000,27569,46863,29142,37965,18671,36392,0
381,380000,27569,46863,29142,37965,18672,36392,0
382,381000,27570,46862,29142,37964,18672,36392,0
383,382000,27570,46862,29142,37964,18672,36392,0
384,383000,27570,46862,29142,37964,18672,36392,0
385,384000,27570,46862,29142,37964,18672,36392,0
386,385000,27570,46862,29142,37964,18672,36393,0
387,386000,27570,46863,29141,37964,18671,36393,0
388,387000,27570,46863,29141,37964,18671,36393,0
389,388000,27570,46863,29141,37964,18671,36393,0
390,389000,27570,46864,29141,37964,18670,36393,0
391,390000,27570,46864,29141,37964,18670,36393,0
392,391000,27570,46865,29141,37964,18670,36393,0
393,392000,27570,46865,29141,37964,18669,36393,0
394,393000,27570,46865,29141,37965,18669,36393,0
