RTDS Simulation, 0,1999
7,6A,1D
1,IAvnCT,,,Amps,1.69745E-4,-5.61453,0,0,65535,1.0,1.0,P
2,IBvnCT,,,Amps,1.48647E-4,-4.81172,0,0,65535,1.0,1.0,P
3,ICvnCT,,,Amps,1.48845E-4,-4.86153,0,0,65535,1.0,1.0,P
4,IAnnCT,,,Amps,1.69745E-4,-5.5097,0,0,65535,1.0,1.0,P
5,IBnnCT,,,Amps,1.48647E-4,-4.92987,0,0,65535,1.0,1.0,P
6,ICnnCT,,,Amps,1.48845E-4,-4.89305,0,0,65535,1.0,1.0,P
1,LG_FLT,0,,0
50.0
1
1000.0,2000
02/03/2020,17:01:10.936000
02/03/2020,17:01:11.936000
ASCII
1
1,0,27644,7577,63577,37890,57957,1957,0
2,1000,36666,2291,58648,28868,63243,6886,0
3,2000,45286,1,51140,20248,65533,14394,0
4,3000,52661,922,41799,12873,64612,23735,0
5,4000,58070,4916,31578,7464,60618,33956,0
6,5000,60978,11637,21484,4556,53897,44050,0
7,6000,61102,20488,12506,4432,45046,53028,0
8,7000,58470,30537,5520,7064,34997,60014,0
9,8000,53344,40793,1209,12190,24741,64325,0
10,9000,46123,50251,0,19411,15283,65535,0
11,10000,37586,57991,1978,27948,7543,63556,0
12,11000,28573,63259,6914,36961,2275,58621,0
13,12000,19968,65535,14418,45566,0,51116,0
14,13000,12609,64609,23747,52925,925,41787,0
15,14000,7210,60621,33952,58324,4913,31582,0
16,15000,4303,53913,44031,61231,11621,21503,0
17,16000,4172,45077,53001,61362,20457,12533,0
18,17000,6793,35040,59990,58741,30494,5544,0
19,18000,11903,24786,64311,53632,40748,1223,0
20,19000,19115,15322,65535,46419,50212,0,0
21,20000,27653,7569,63568,37881,57965,1966,0
22,21000,36675,2287,58636,28859,63247,6898,0
23,22000,45293,1,51127,20241,65533,14407,0
24,23000,52665,925,41785,12869,64609,23749,0
25,24000,58071,4922,31564,7463,60612,33970,0
26,25000,60976,11645,21472,4558,53889,44062,0
27,26000,61097,20497,12497,4437,45037,53037,0
28,27000,58462,30545,5514,7072,34989,60020,0
29,28000,53338,40801,1207,12196,24733,64327,0
30,29000,46117,50256,1,19417,15278,65533,0
31,30000,37580,57993,1983,27954,7541,63551,0
32,31000,28568,63257,6921,36966,2277,58613,0
33,32000,19965,65529,14428,45569,5,51107,0
34,33000,12608,64600,23757,52926,934,41777,0
35,34000,7212,60609,33961,58322,4925,31573,0
36,35000,4308,53899,44039,61226,11635,21495,0
37,36000,4181,45062,53006,61353,20472,12528,0
38,37000,6805,35025,59991,58729,30509,5543,0
39,38000,11916,24773,64309,53618,40761,1225,0
40,39000,19130,15311,65529,46404,50223,5,0
41,40000,27668,7562,63559,37866,57973,1975,0
42,41000,36689,2283,58625,28845,63251,6909,0
43,42000,45306,1,51113,20229,65533,14421,0
44,43000,52675,928,41771,12859,64606,23763,0
45,44000,58077,4928,31551,7457,60606,33983,0
46,45000,60980,11653,21460,4554,53881,44074,0
47,46000,61097,20506,12488,4437,45028,53046,0
48,47000,58459,30554,5508,7075,34980,60026,0
49,48000,53329,40808,1205,12205,24726,64329,0
50,49000,46106,50261,3,19428,15273,65531,0
51,50000,37569,57995,1988,27965,7539,63546,0
52,51000,28558,63255,6929,36977,2279,58605,0
53,52000,19956,65524,14443,45578,11,51091,0
54,53000,12602,64591,23773,52932,943,41761,0
55,54000,7209,60597,33977,58325,4937,31557,0
56,55000,4308,53885,44053,61226,11649,21481,0
57,56000,4184,45047,53017,61350,20487,12517,0
58,57000,6811,35010,59999,58723,30524,5535,0
59,58000,11924,24759,64313,53610,40775,1221,0
60,59000,19140,15300,65529,46395,50234,5,0
61,60000,27678,7554,63556,37856,57980,1979,0
62,61000,36698,2279,58619,28836,63255,6915,0
63,62000,45313,0,51100,20222,65534,14434,0
64,63000,52679,931,41757,12855,64603,23777,0
65,64000,58079,4934,31538,7455,60600,33997,0
66,65000,60978,11661,21449,4556,53873,44085,0
67,66000,61092,20515,12479,4442,45019,53055,0
68,67000,58451,30563,5503,7083,34971,60031,0
69,68000,53324,40815,1203,12210,24719,64331,0
70,69000,46100,50266,5,19434,15268,65529,0
71,70000,37563,57997,1993,27971,7537,63541,0
72,71000,28552,63253,6937,36982,2281,58597,0
73,72000,19953,65518,14452,45581,16,51082,0
74,73000,12601,64582,23783,52933,952,41751,0
75,74000,7211,60585,33986,58323,4949,31548,0
76,75000,4314,53871,44060,61220,11663,21474,0
77,76000,4193,45033,53022,61341,20502,12512,0
78,77000,6822,34995,60001,58712,30539,5533,0
79,78000,11938,24746,64311,53596,40788,1223,0
80,79000,19154,15289,65523,46380,50245,11,0
81,80000,27693,7546,63547,37841,57988,1987,0
82,81000,36712,2275,58607,28822,63259,6927,0
83,82000,45325,0,51087,20209,65534,14447,0
84,83000,52689,934,41743,12845,64600,23791,0
85,84000,58085,4940,31524,7449,60594,34010,0
86,85000,60981,11669,21437,4553,53865,44097,0
87,86000,61092,20524,12471,4442,45011,53064,0
88,87000,58448,30572,5497,7086,34962,60037,0
89,88000,53319,40823,1201,12215,24711,64333,0
90,89000,46095,50271,7,19439,15263,65527,0
91,90000,37557,57998,1998,27977,7536,63536,0
92,91000,28547,63252,6944,36987,2282,58590,0
93,92000,19949,65513,14461,45585,21,51073,0
94,93000,12600,64574,23793,52934,961,41741,0
95,94000,7213,60574,33996,58321,4960,31539,0
96,95000,4319,53857,44068,61215,11677,21466,0
97,96000,4201,45018,53027,61333,20516,12507,0
98,97000,6833,34981,60003,58701,30553,5531,0
99,98000,11951,24733,64309,53583,40801,1225,0
100,99000,19169,15278,65518,46365,50256,16,0
101,100000,27707,7538,63538,37827,57996,1996,0
102,101000,36726,2270,58596,28808,63264,6938,0
103,102000,45337,0,51073,20197,65535,14461,0
104,103000,52698,937,41730,12836,64597,23805,0
105,104000,58092,4945,31511,7442,60589,34023,0
106,105000,60984,11677,21426,4550,53857,44108,0
107,106000,61092,20532,12462,4442,45002,53072,0
108,107000,58446,30580,5492,7088,34954,60042,0
109,108000,53310,40830,1199,12224,24704,64335,0
110,109000,46084,50276,8,19450,15258,65526,0
111,110000,37546,58000,2003,27988,7534,63531,0
112,111000,28537,63250,6952,36997,2284,58582,0
113,112000,19941,65507,14471,45593,27,51063,0
114,113000,12594,64565,23803,52940,969,41732,0
115,114000,7210,60562,34005,58324,4972,31529,0
116,115000,4319,53850,44076,61215,11684,21458,0
117,116000,4205,45009,53033,61329,20525,12502,0
118,117000,6839,34972,60005,58695,30562,5529,0
119,118000,11959,24725,64307,53575,40809,1227,0
120,119000,19178,15273,65512,46356,50261,22,0
121,120000,27717,7536,63529,37817,57998,2005,0
122,121000,36734,2272,58584,28800,63262,6950,0
123,122000,45344,5,51060,20191,65529,14474,0
124,123000,52703,946,41716,12831,64588,23818,0
125,124000,58093,4957,31498,7441,60577,34036,0
126,125000,60982,11690,21414,4552,53844,44120,0
127,126000,61087,20547,12453,4447,44987,53081,0
128,127000,58438,30595,5486,7096,34939,60048,0
129,128000,53305,40843,1197,12229,24691,64337,0
130,129000,46078,50287,10,19456,15247,65524,0
131,130000,37540,58008,2008,27994,7526,63526,0
132,131000,28532,63254,6959,37002,2280,58575,0
133,132000,19937,65508,14480,45597,26,51054,0
134,133000,12593,64562,23812,52941,972,41722,0
135,134000,7212,60557,34014,58322,4977,31520,0
136,135000,4324,53836,44083,61210,11698,21451,0
137,136000,4213,44994,53038,61321,20540,12496,0
138,137000,6851,34958,60006,58684,30577,5528,0
139,138000,11972,24712,64306,53562,40822,1228,0
140,139000,19192,15262,65507,46342,50272,27,0
141,140000,27731,7528,63520,37803,58006,2014,0
142,141000,36748,2268,58573,28786,63266,6961,0
143,142000,45356,5,51047,20179,65529,14487,0
144,143000,52712,949,41702,12822,64585,23832,0
145,144000,58099,4963,31485,7435,60571,34049,0
146,145000,60985,11698,21403,4549,53836,44131,0
147,146000,61087,20556,12444,4447,44978,53090,0
148,147000,58435,30604,5481,7099,34931,60053,0
149,148000,53300,40851,1195,12234,24684,64339,0
150,149000,46072,50292,12,19462,15242,65522,0
151,150000,37534,58010,2013,28000,7524,63521,0
152,151000,28527,63252,6967,37007,2282,58567,0
153,152000,19934,65503,14489,45600,31,51045,0
154,153000,12592,64554,23822,52942,980,41712,0
155,154000,7214,60545,34023,58320,4989,31511,0
156,155000,4329,53823,44091,61205,11711,21443,0
157,156000,4221,44980,53043,61313,20554,12491,0
158,157000,6862,34943,60008,58673,30591,5526,0
159,158000,11985,24699,64304,53549,40835,1230,0
160,159000,19206,15251,65501,46328,50283,33,0
161,160000,27746,7520,63511,37788,58014,2023,0
162,161000,36762,2264,58562,28772,63270,6972,0
163,162000,45367,4,51034,20167,65530,14500,0
164,163000,52722,952,41689,12813,64582,23845,0
165,164000,58106,4968,31472,7428,60566,34062,0
166,165000,60988,11706,21392,4546,53828,44143,0
167,166000,61087,20565,12435,4447,44970,53099,0
168,167000,58433,30612,5475,7101,34922,60059,0
169,168000,53291,40858,1194,12243,24676,64341,0
170,169000,46061,50297,13,19473,15237,65521,0
171,170000,37523,58012,2018,28011,7522,63516,0
172,171000,28516,63251,6974,37018,2283,58560,0
173,172000,19925,65497,14498,45609,37,51036,0
174,173000,12586,64545,23832,52949,989,41702,0
175,174000,7211,60534,34032,58323,5000,31502,0
176,175000,4329,53809,44099,61205,11725,21435,0
177,176000,4224,44965,53048,61310,20569,12486,0
178,177000,6867,34929,60010,58667,30605,5524,0
179,178000,11993,24686,64302,53541,40848,1232,0
180,179000,19215,15240,65496,46319,50294,38,0
181,180000,27755,7513,63503,37779,58021,2031,0
182,181000,36770,2260,58550,28764,63274,6984,0
183,182000,45374,3,51021,20160,65531,14513,0
184,183000,52726,955,41675,12808,64580,23859,0
185,184000,58107,4974,31459,7427,60560,34075,0
186,185000,60986,11713,21380,4548,53821,44154,0
187,186000,61082,20573,12427,4452,44961,53108,0
188,187000,58425,30620,5470,7109,34914,60065,0
189,188000,53286,40865,1192,12248,24669,64342,0
190,189000,46056,50302,15,19478,15232,65519,0
191,190000,37517,58014,2022,28017,7520,63512,0
192,191000,28511,63249,6981,37023,2285,58553,0
193,192000,19922,65492,14507,45612,42,51027,0
194,193000,12585,64537,23841,52950,997,41693,0
195,194000,7212,60523,34042,58322,5011,31492,0
196,195000,4334,53796,44106,61200,11738,21428,0
197,196000,4233,44951,53053,61302,20583,12481,0
198,197000,6878,34914,60012,58656,30620,5522,0
199,198000,12006,24673,64300,53528,40861,1234,0
200,199000,19230,15230,65491,46305,50305,43,0
201,200000,27769,7505,63494,37765,58029,2040,0
202,201000,36784,2255,58539,28750,63279,6995,0
203,202000,45386,3,51009,20148,65531,14526,0
204,203000,52735,957,41662,12799,64577,23872,0
205,204000,58113,4980,31446,7421,60555,34088,0
206,205000,60989,11721,21369,4545,53813,44165,0
207,206000,61082,20582,12418,4452,44952,53116,0
208,207000,58422,30629,5464,7112,34905,60070,0
209,208000,53281,40872,1190,12253,24662,64344,0
210,209000,46050,50307,17,19484,15227,65518,0
211,210000,37511,58016,2027,28023,7518,63507,0
212,211000,28506,63248,6989,37028,2286,58546,0
213,212000,19918,65487,14516,45616,47,51018,0
214,213000,12584,64528,23851,52951,1006,41683,0
215,214000,7214,60512,34051,58320,5022,31483,0
216,215000,4339,53783,44114,61195,11751,21420,0
217,216000,4241,44937,53058,61293,20597,12476,0
218,217000,6889,34900,60014,58645,30634,5520,0
219,218000,12019,24660,64299,53515,40874,1235,0
220,219000,19243,15219,65486,46291,50315,49,0
221,220000,27783,7497,63486,37751,58037,2048,0
222,221000,36797,2251,58528,28737,63283,7006,0
223,222000,45398,2,50996,20137,65532,14538,0
224,223000,52744,960,41649,12790,64574,23886,0
225,224000,58120,4985,31433,7414,60549,34101,0
226,225000,60993,11728,21358,4541,53806,44176,0
227,226000,61082,20590,12409,4452,44944,53125,0
228,227000,58420,30637,5459,7114,34897,60076,0
229,228000,53273,40879,1188,12261,24655,64346,0
230,229000,46039,50312,18,19495,15222,65516,0
231,230000,37500,58018,2032,28034,7516,63502,0
232,231000,28496,63246,6996,37038,2288,58538,0
233,232000,19910,65482,14525,45624,52,51009,0
234,233000,12577,64520,23860,52957,1014,41674,0
235,234000,7211,60501,34060,58323,5034,31474,0
236,235000,4339,53770,44121,61195,11764,21413,0
237,236000,4243,44923,53063,61291,20611,12471,0
238,237000,6894,34886,60016,58640,30648,5518,0
239,238000,12026,24647,64297,53508,40887,1237,0
240,239000,19252,15208,65480,46282,50326,54,0
241,240000,27792,7489,63478,37742,58045,2056,0
242,241000,36805,2247,58517,28729,63287,7017,0
243,242000,45404,2,50983,20130,65532,14551,0
244,243000,52748,963,41635,12786,64571,23899,0
245,244000,58121,4990,31421,7413,60544,34113,0
246,245000,60991,11742,21347,4543,53792,44187,0
247,246000,61077,20604,12401,4457,44930,53133,0
248,247000,58413,30651,5453,7122,34883,60081,0
249,248000,53268,40892,1186,12267,24642,64348,0
250,249000,46034,50322,20,19500,15212,65514,0
251,250000,37495,58026,2036,28039,7508,63498,0
252,251000,28491,63251,7003,37043,2283,58531,0
253,252000,19907,65483,14534,45628,51,51001,0
254,253000,12576,64518,23870,52958,1016,41664,0
255,254000,7213,60495,34069,58321,5039,31465,0
256,255000,4344,53763,44129,61190,11771,21405,0
257,256000,4251,44915,53068,61283,20620,12466,0
258,257000,6905,34878,60018,58629,30656,5516,0
259,258000,12039,24640,64296,53496,40894,1238,0
260,259000,19266,15203,65475,46268,50331,59,0
261,260000,27806,7488,63469,37728,58046,2065,0
262,261000,36818,2249,58507,28716,63285,7027,0
263,262000,45416,7,50971,20118,65527,14563,0
264,263000,52758,971,41622,12777,64563,23912,0
265,264000,58127,5002,31408,7407,60532,34126,0
266,265000,60994,11749,21336,4540,53785,44198,0
267,266000,61077,20613,12392,4457,44922,53142,0
268,267000,58410,30659,5448,7124,34875,60086,0
269,268000,53263,40899,1184,12271,24635,64350,0
270,269000,46029,50327,21,19506,15207,65513,0
271,270000,37489,58027,2041,28045,7507,63493,0
272,271000,28486,63249,7010,37048,2285,58524,0
273,272000,19903,65478,14542,45631,56,50992,0
274,273000,12575,64509,23879,52959,1025,41655,0
275,274000,7215,60484,34078,58319,5050,31457,0
276,275000,4349,53750,44136,61185,11784,21398,0
277,276000,4259,44901,53073,61275,20633,12461,0
278,277000,6915,34864,60020,58619,30670,5514,0
279,278000,12051,24628,64294,53483,40907,1240,0
280,279000,19279,15193,65470,46255,50341,64,0
281,280000,27820,7480,63461,37714,58054,2073,0
282,281000,36832,2244,58496,28703,63290,7038,0
283,282000,45427,6,50959,20107,65528,14576,0
284,283000,52767,974,41609,12768,64560,23925,0
285,284000,58133,5007,31396,7401,60527,34138,0
286,285000,60997,11756,21325,4537,53778,44209,0
287,286000,61077,20621,12384,4457,44913,53150,0
288,287000,58408,30667,5442,7126,34867,60092,0
289,288000,53255,40906,1182,12279,24629,64352,0
290,289000,46018,50332,23,19516,15202,65511,0
291,290000,37478,58029,2045,28056,7505,63489,0
292,291000,28476,63248,7017,37058,2286,58517,0
293,292000,19895,65473,14551,45639,61,50983,0
294,293000,12569,64501,23888,52965,1033,41646,0
295,294000,7211,60474,34086,58323,5060,31448,0
296,295000,4349,53737,44143,61185,11797,21391,0
297,296000,4262,44887,53078,61272,20647,12456,0
298,297000,6920,34851,60022,58614,30683,5512,0
299,298000,12058,24615,64292,53476,40919,1242,0
300,299000,19288,15183,65465,46246,50352,69,0
301,300000,27829,7473,63453,37705,58061,2081,0
302,301000,36839,2240,58485,28695,63294,7049,0
303,302000,45433,6,50946,20101,65528,14588,0
304,303000,52770,977,41596,12764,64557,23938,0
305,304000,58134,5012,31383,7400,60522,34151,0
306,305000,60995,11764,21314,4539,53771,44220,0
307,306000,61072,20629,12375,4462,44905,53159,0
308,307000,58400,30675,5437,7134,34859,60097,0
309,308000,53250,40912,1180,12284,24622,64354,0
310,309000,46013,50336,24,19521,15198,65510,0
311,310000,37473,58031,2050,28061,7503,63484,0
312,311000,28471,63246,7024,37063,2288,58510,0
313,312000,19892,65468,14559,45642,66,50975,0
314,313000,12568,64493,23897,52966,1041,41637,0
315,314000,7213,60463,34095,58321,5071,31439,0
316,315000,4354,53724,44151,61180,11810,21383,0
317,316000,4270,44873,53083,61264,20661,12451,0
318,317000,6931,34837,60023,58603,30697,5511,0
319,318000,12071,24603,64291,53464,40932,1243,0
320,319000,19301,15172,65460,46233,50362,74,0
321,320000,27842,7465,63445,37692,58069,2089,0
322,321000,36852,2236,58475,28682,63298,7059,0
323,322000,45445,5,50934,20090,65529,14600,0
324,323000,52779,979,41584,12755,64555,23950,0
325,324000,58140,5018,31371,7394,60516,34163,0
326,325000,60998,11777,21303,4536,53757,44231,0
327,326000,61073,20643,12367,4461,44891,53167,0
328,327000,58398,30689,5432,7136,34845,60102,0
329,328000,53246,40925,1178,12289,24609,64356,0
330,329000,46007,50347,26,19527,15187,65509,0
331,330000,37467,58039,2054,28067,7495,63480,0
332,331000,28467,63251,7030,37067,2283,58504,0
333,332000,19889,65469,14568,45646,65,50966,0
334,333000,12568,64491,23907,52966,1043,41627,0
335,334000,7215,60458,34104,58319,5076,31430,0
336,335000,4359,53717,44158,61175,11817,21376,0
337,336000,4277,44865,53088,61257,20669,12447,0
338,337000,6941,34829,60025,58593,30705,5509,0
339,338000,12083,24596,64289,53451,40938,1245,0
340,339000,19315,15168,65455,46219,50366,79,0
341,340000,27856,7464,63437,37678,58070,2097,0
342,341000,36865,2238,58464,28669,63296,7070,0
343,342000,45456,10,50928,20078,65524,14606,0
344,343000,52788,988,41577,12746,64546,23957,0
345,344000,58146,5029,31365,7388,60505,34169,0
346,345000,61001,11784,21299,4533,53750,44235,0
347,346000,61073,20651,12365,4461,44883,53169,0
348,347000,58396,30697,5433,7138,34837,60101,0
349,348000,53237,40932,1182,12297,24603,64352,0
350,349000,45997,50351,33,19537,15183,65501,0
351,350000,37457,58040,2065,28077,7494,63469,0
352,351000,28457,63249,7043,37077,2285,58491,0
353,352000,19880,65464,14582,45654,70,50952,0
354,353000,12562,64483,23922,52972,1051,41612,0
355,354000,7212,60447,34118,58322,5087,31416,0
356,355000,4358,53705,44171,61176,11829,21363,0
357,356000,4280,44852,53098,61254,20682,12436,0
358,357000,6946,34816,60033,58588,30718,5501,0
359,358000,12094,24584,64294,53440,40950,1241,0
360,359000,19328,15158,65456,46206,50376,78,0
361,360000,27869,7456,63435,37665,58078,2099,0
362,361000,36878,2234,58460,28656,63300,7074,0
363,362000,45467,10,50916,20067,65524,14618,0
364,363000,52797,990,41564,12737,64544,23970,0
365,364000,58153,5034,31353,7382,60500,34181,0
366,365000,61004,11791,21288,4530,53743,44246,0
367,366000,61073,20659,12357,4461,44875,53177,0
368,367000,58394,30705,5427,7140,34830,60107,0
369,368000,53233,40938,1180,12301,24596,64354,0
370,369000,45992,50356,34,19542,15178,65500,0
371,370000,37451,58042,2069,28083,7492,63465,0
372,371000,28452,63248,7050,37082,2286,58484,0
373,372000,19877,65459,14590,45657,75,50944,0
374,373000,12561,64475,23931,52973,1060,41604,0
375,374000,7214,60436,34127,58320,5098,31407,0
376,375000,4363,53692,44178,61171,11842,21356,0
377,376000,4288,44838,53103,61246,20696,12431,0
378,377000,6956,34803,60035,58578,30731,5499,0
379,378000,12102,24571,64292,53432,40963,1242,0
380,379000,19336,15148,65451,46198,50387,83,0
381,380000,27878,7449,63427,37656,58085,2107,0
382,381000,36885,2230,58449,28649,63304,7085,0
383,382000,45473,9,50904,20061,65525,14630,0
384,383000,52801,993,41552,12734,64541,23982,0
385,384000,58153,5039,31341,7381,60495,34193,0
386,385000,61002,11798,21278,4532,53736,44256,0
387,386000,61068,20667,12349,4466,44867,53186,0
388,387000,58386,30712,5422,7148,34822,60112,0
389,388000,53228,40945,1178,12306,24589,64356,0
390,389000,45987,50360,36,19547,15174,65498,0
391,390000,37446,58044,2074,28088,7490,63460,0
392,391000,28447,63246,7057,37087,2288,58477,0
393,392000,19874,65455,14599,45660,79,50935,0
394,393000,12560,64466,23940,52974,1068,41595,0
395,394000,7216,60426,34135,58318,5108,31399,0
396,395000,4368,53680,44185,61166,11854,21349,0
397,396000,4295,44825,53108,61239,20709,12426,0
398,397000,6966,34789,60036,58568,30745,5498,0
399,398000,12114,24559,64290,53420,40975,1244,0
400,399000,19349,15137,65446,46185,50397,88,0
401,400000,27891,7442,63419,37643,58092,2115,0
402,401000,36898,2226,58439,28636,63308,7095,0
403,402000,45484,8,50892,20050,65526,14642,0
404,403000,52809,996,41539,12725,64538,23995,0
405,404000,58159,5045,31329,7375,60489,34205,0
406,405000,61005,11811,21267,4529,53723,44267,0
407,406000,61068,20680,12340,4466,44854,53194,0
408,407000,58384,30726,5417,7150,34808,60117,0
409,408000,53220,40957,1177,12315,24577,64357,0
410,409000,45976,50371,38,19558,15163,65496,0
