RTDS Simulation, 0,1999
7,6A,1D
1,IAvnCT,,,Amps,1.46911E-4,-4.8276,0,0,65535,1.0,1.0,P
2,IBvnCT,,,Amps,1.47513E-4,-4.80888,0,0,65535,1.0,1.0,P
3,ICvnCT,,,Amps,1.46553E-4,-4.80961,0,0,65535,1.0,1.0,P
4,IAnnCT,,,Amps,1.46911E-4,-4.80022,0,0,65535,1.0,1.0,P
5,IBnnCT,,,Amps,1.47502E-4,-4.85839,0,0,65535,1.0,1.0,P
6,ICnnCT,,,Amps,1.46553E-4,-4.79474,0,0,65535,1.0,1.0,P
1,LG_FLT,0,,0
50.0
1
1000.0,2000
02/03/2020,17:04:44.613000
02/03/2020,17:04:45.613000
ASCII
1
1,0,61154,32959,4092,4380,32578,61442,0
2,1000,54676,43091,460,10858,22445,65074,0
3,2000,45985,52203,0,19549,13332,65535,0
4,3000,36002,59409,2713,29532,6126,62821,0
5,4000,25709,64003,8312,39825,1531,57222,0
6,5000,16114,65532,16384,49420,2,49150,0
7,6000,8151,63870,26062,57383,1664,39472,0
8,7000,2597,59219,36389,62937,6316,29145,0
9,8000,0,51953,46352,65535,13582,19182,0
10,9000,607,42770,54978,64927,22766,10556,0
11,10000,4313,32612,61429,61221,32925,4105,0
12,11000,10785,22478,65067,54749,43060,467,0
13,12000,19474,13361,65535,46060,52178,0,0
14,13000,29460,6148,62825,36074,59391,2709,0
15,14000,39760,1547,57226,25774,63992,8309,0
16,15000,49363,15,49149,16171,65524,16385,0
17,16000,57331,1679,39464,8203,63860,26070,0
18,17000,62887,6336,29129,2647,59203,36405,0
19,18000,65481,13609,19162,53,51929,46372,0
20,19000,64867,22800,10536,668,42738,54998,0
21,20000,61153,32961,4090,4381,32576,61444,0
22,21000,54675,43093,459,10859,22443,65075,0
23,22000,45983,52204,0,19551,13331,65534,0
24,23000,36000,59409,2714,29534,6125,62820,0
25,24000,25707,64003,8315,39827,1532,57219,0
26,25000,16113,65530,16387,49421,4,49147,0
27,26000,8151,63867,26065,57383,1667,39469,0
28,27000,2597,59215,36393,62937,6320,29142,0
29,28000,1,51949,46355,65533,13586,19179,0
30,29000,610,42765,54981,64924,22771,10554,0
31,30000,4316,32607,61430,61218,32930,4104,0
32,31000,10789,22473,65067,54745,43064,467,0
33,32000,19479,13357,65533,46055,52181,1,0
34,33000,29466,6145,62823,36068,59394,2711,0
35,34000,39765,1545,57222,25769,63994,8312,0
36,35000,49367,14,49145,16167,65525,16389,0
37,36000,57335,1680,39460,8199,63860,26074,0
38,37000,62889,6337,29125,2645,59201,36409,0
39,38000,65482,13617,19159,52,51921,46376,0
40,39000,64867,22808,10533,667,42729,55001,0
41,40000,61152,32969,4089,4382,32567,61446,0
42,41000,54673,43101,459,10861,22435,65075,0
43,42000,45981,52212,1,19553,13323,65533,0
44,43000,35998,59416,2716,29536,6119,62818,0
45,44000,25705,64008,8317,39829,1526,57217,0
46,45000,16111,65535,16390,49423,0,49144,0
47,46000,8150,63870,26069,57384,1664,39465,0
48,47000,2598,59217,36396,62936,6317,29138,0
49,48000,3,51945,46358,65531,13591,19176,0
50,49000,613,42760,54983,64922,22776,10552,0
51,50000,4320,32602,61431,61214,32935,4103,0
52,51000,10794,22469,65067,54740,43069,467,0
53,52000,19484,13353,65532,46050,52185,2,0
54,53000,29471,6142,62821,36063,59397,2713,0
55,54000,39770,1543,57219,25764,63996,8315,0
56,55000,49372,14,49141,16163,65525,16393,0
57,56000,57338,1680,39456,8196,63859,26078,0
58,57000,62892,6339,29121,2642,59200,36413,0
59,58000,65483,13619,19155,51,51919,46379,0
60,59000,64867,22810,10530,667,42727,55004,0
61,60000,61152,32972,4087,4383,32565,61447,0
62,61000,54672,43103,458,10862,22433,65076,0
63,62000,45979,52213,1,19555,13322,65533,0
64,63000,35996,59416,2718,29538,6119,62816,0
65,64000,25703,64007,8320,39831,1527,57214,0
66,65000,16110,65533,16393,49424,1,49141,0
67,66000,8150,63867,26072,57384,1667,39462,0
68,67000,2598,59213,36399,62936,6321,29135,0
69,68000,5,51940,46360,65530,13595,19174,0
70,69000,615,42755,54985,64919,22781,10550,0
71,70000,4324,32597,61432,61210,32940,4102,0
72,71000,10798,22464,65067,54736,43073,467,0
73,72000,19489,13349,65531,46045,52189,3,0
74,73000,29476,6139,62818,36058,59400,2716,0
75,74000,39775,1542,57216,25759,63998,8318,0
76,75000,49376,13,49138,16158,65526,16396,0
77,76000,57342,1680,39452,8192,63859,26082,0
78,77000,62894,6340,29118,2640,59199,36416,0
79,78000,65485,13621,19152,49,51917,46382,0
80,79000,64867,22813,10528,667,42725,55006,0
81,80000,61151,32974,4085,4383,32563,61449,0
82,81000,54670,43105,458,10864,22431,65076,0
83,82000,45977,52214,2,19557,13321,65532,0
84,83000,35994,59416,2719,29540,6118,62815,0
85,84000,25701,64007,8322,39833,1527,57212,0
86,85000,16109,65531,16396,49425,3,49138,0
87,86000,8149,63865,26075,57385,1670,39459,0
88,87000,2599,59210,36402,62935,6325,29132,0
89,88000,6,51936,46363,65528,13599,19171,0
90,89000,618,42751,54987,64916,22785,10548,0
91,90000,4328,32592,61433,61206,32944,4101,0
92,91000,10803,22460,65067,54731,43077,467,0
93,92000,19494,13345,65530,46040,52193,4,0
94,93000,29481,6136,62816,36053,59403,2718,0
95,94000,39780,1540,57213,25754,63999,8321,0
96,95000,49380,13,49134,16154,65527,16400,0
97,96000,57345,1681,39448,8189,63858,26086,0
98,97000,62897,6341,29114,2637,59197,36420,0
99,98000,65486,13623,19149,48,51915,46386,0
100,99000,64867,22815,10525,667,42722,55009,0
101,100000,61150,32976,4084,4384,32560,61450,0
102,101000,54669,43107,457,10865,22429,65077,0
103,102000,45976,52216,3,19559,13319,65531,0
104,103000,35992,59417,2721,29542,6118,62813,0
105,104000,25699,64006,8325,39835,1528,57209,0
106,105000,16107,65529,16399,49427,5,49135,0
107,106000,8149,63862,26079,57385,1672,39455,0
108,107000,2599,59206,36405,62935,6328,29129,0
109,108000,8,51932,46366,65526,13604,19168,0
110,109000,621,42746,54989,64913,22790,10546,0
111,110000,4331,32588,61434,61203,32949,4100,0
112,111000,10801,22456,65067,54733,43082,467,0
113,112000,19493,13342,65528,46041,52197,6,0
114,113000,29480,6133,62814,36054,59405,2720,0
115,114000,39779,1538,57210,25755,64001,8324,0
116,115000,49378,12,49130,16156,65527,16404,0
117,116000,57342,1681,39444,8192,63858,26090,0
118,117000,62893,6343,29110,2641,59196,36424,0
119,118000,65481,13625,19145,53,51913,46389,0
120,119000,64862,22817,10523,672,42720,55011,0
121,120000,61143,32979,4082,4391,32558,61452,0
122,121000,54661,43109,457,10873,22427,65077,0
123,122000,45968,52217,3,19566,13318,65531,0
124,123000,35984,59417,2723,29550,6117,62811,0
125,124000,25692,64005,8327,39842,1529,57207,0
126,125000,16100,65528,16402,49434,6,49132,0
127,126000,8142,63859,26082,57392,1675,39452,0
128,127000,2594,59202,36409,62940,6332,29126,0
129,128000,3,51927,46369,65531,13608,19165,0
130,129000,618,42741,54991,64917,22795,10544,0
131,130000,4329,32583,61435,61205,32954,4099,0
132,131000,10806,22451,65067,54728,43086,467,0
133,132000,19498,13338,65527,46036,52200,7,0
134,133000,29485,6131,62812,36049,59408,2722,0
135,134000,39784,1536,57207,25750,64003,8327,0
136,135000,49383,11,49127,16151,65528,16407,0
137,136000,57346,1682,39440,8188,63857,26094,0
138,137000,62896,6344,29106,2639,59195,36428,0
139,138000,65483,13627,19142,51,51911,46392,0
140,139000,64862,22820,10520,672,42718,55014,0
141,140000,61143,32981,4081,4391,32556,61453,0
142,141000,54660,43111,456,10874,22425,65078,0
143,142000,45966,52218,4,19568,13317,65530,0
144,143000,35982,59418,2724,29552,6117,62810,0
145,144000,25690,64005,8330,39844,1529,57204,0
146,145000,16099,65526,16405,49435,8,49129,0
147,146000,8142,63856,26085,57392,1678,39449,0
148,147000,2594,59199,36412,62940,6336,29122,0
149,148000,5,51929,46371,65529,13606,19163,0
150,149000,620,42743,54993,64914,22793,10542,0
151,150000,4333,32584,61436,61201,32952,4098,0
152,151000,10810,22453,65067,54724,43085,467,0
153,152000,19503,13340,65526,46031,52198,8,0
154,153000,29490,6134,62809,36044,59405,2725,0
155,154000,39789,1541,57204,25746,63999,8330,0
156,155000,49387,17,49123,16147,65523,16411,0
157,156000,57349,1688,39436,8185,63851,26098,0
158,157000,62898,6351,29103,2636,59187,36431,0
159,158000,65484,13629,19139,50,51909,46395,0
160,159000,64862,22822,10518,672,42716,55016,0
161,160000,61142,32983,4079,4392,32553,61455,0
162,161000,54659,43113,456,10876,22423,65078,0
163,162000,45964,52220,4,19570,13315,65530,0
164,163000,35980,59418,2726,29554,6116,62808,0
165,164000,25688,64004,8332,39846,1530,57202,0
166,165000,16098,65524,16408,49437,10,49126,0
167,166000,8141,63854,26088,57393,1681,39446,0
168,167000,2595,59195,36415,62939,6339,29119,0
169,168000,7,51925,46374,65527,13611,19160,0
170,169000,623,42738,54995,64911,22798,10539,0
171,170000,4336,32580,61437,61198,32957,4097,0
172,171000,10814,22449,65067,54720,43089,467,0
173,172000,19508,13337,65525,46026,52202,9,0
174,173000,29495,6131,62807,36039,59408,2727,0
175,174000,39793,1539,57201,25741,64000,8333,0
176,175000,49391,16,49120,16143,65523,16414,0
177,176000,57353,1688,39433,8181,63851,26101,0
178,177000,62900,6353,29099,2634,59186,36435,0
179,178000,65485,13631,19136,49,51907,46399,0
180,179000,64863,22824,10515,671,42713,55019,0
181,180000,61142,32985,4077,4393,32551,61457,0
182,181000,54657,43115,455,10877,22421,65079,0
183,182000,45962,52221,5,19572,13314,65529,0
184,183000,35978,59419,2728,29557,6116,62806,0
185,184000,25686,64004,8334,39848,1530,57200,0
186,185000,16096,65523,16411,49438,11,49123,0
187,186000,8141,63851,26091,57393,1683,39443,0
188,187000,2596,59192,36418,62938,6343,29116,0
189,188000,8,51920,46377,65526,13615,19157,0
190,189000,625,42733,54997,64909,22802,10537,0
191,190000,4340,32575,61438,61195,32962,4096,0
192,191000,10819,22444,65067,54715,43093,467,0
193,192000,19513,13333,65524,46021,52205,10,0
194,193000,29500,6128,62805,36034,59411,2729,0
195,194000,39798,1537,57198,25736,64002,8336,0
196,195000,49395,15,49116,16139,65524,16418,0
197,196000,57356,1689,39429,8178,63850,26105,0
198,197000,62902,6354,29096,2632,59185,36438,0
199,198000,65486,13639,19132,48,51899,46402,0
200,199000,64863,22832,10513,671,42705,55022,0
201,200000,61141,32993,4076,4393,32543,61458,0
202,201000,54656,43123,455,10878,22413,65079,0
203,202000,45960,52228,6,19574,13307,65528,0
204,203000,35976,59425,2729,29559,6110,62805,0
205,204000,25684,64009,8337,39850,1525,57197,0
206,205000,16095,65527,16414,49439,7,49120,0
207,206000,8140,63854,26095,57394,1680,39439,0
208,207000,2596,59194,36421,62938,6341,29113,0
209,208000,10,51916,46379,65524,13619,19155,0
210,209000,628,42729,54999,64906,22807,10535,0
211,210000,4343,32571,61439,61191,32966,4095,0
212,211000,10823,22440,65067,54711,43097,467,0
213,212000,19517,13329,65523,46017,52209,12,0
214,213000,29505,6125,62803,36029,59413,2731,0
215,214000,39803,1535,57195,25731,64004,8339,0
216,215000,49399,15,49113,16135,65525,16421,0
217,216000,57359,1689,39425,8175,63850,26109,0
218,217000,62905,6355,29092,2629,59184,36442,0
219,218000,65488,13641,19129,46,51898,46405,0
220,219000,64863,22834,10510,671,42703,55024,0
221,220000,61140,32996,4074,4394,32541,61460,0
222,221000,54655,43124,454,10879,22412,65080,0
223,222000,45958,52229,6,19576,13306,65528,0
224,223000,35973,59425,2731,29561,6109,62803,0
225,224000,25683,64008,8339,39851,1526,57195,0
226,225000,16094,65525,16417,49440,9,49117,0
227,226000,8140,63852,26098,57394,1683,39436,0
228,227000,2597,59190,36424,62937,6344,29110,0
229,228000,11,51912,46382,65523,13623,19152,0
230,229000,630,42724,55001,64904,22811,10533,0
231,230000,4346,32566,61440,61188,32971,4094,0
232,231000,10827,22436,65067,54707,43101,467,0
233,232000,19522,13326,65521,46012,52212,13,0
234,233000,29510,6123,62801,36024,59416,2733,0
235,234000,39807,1534,57192,25727,64006,8342,0
236,235000,49404,14,49109,16131,65525,16425,0
237,236000,57363,1689,39422,8171,63850,26113,0
238,237000,62907,6356,29089,2627,59182,36446,0
239,238000,65489,13642,19126,45,51896,46408,0
240,239000,64863,22837,10508,671,42701,55026,0
241,240000,61140,32998,4073,4394,32539,61461,0
242,241000,54653,43126,454,10881,22410,65080,0
243,242000,45956,52231,7,19578,13304,65527,0
244,243000,35972,59426,2732,29563,6109,62802,0
245,244000,25681,64008,8341,39853,1526,57193,0
246,245000,16092,65524,16420,49442,10,49114,0
247,246000,8139,63849,26101,57395,1685,39433,0
248,247000,2597,59187,36427,62937,6348,29107,0
249,248000,13,51908,46385,65521,13627,19150,0
250,249000,633,42720,55003,64901,22816,10532,0
251,250000,4350,32562,61441,61184,32975,4093,0
252,251000,10831,22432,65067,54703,43106,467,0
253,252000,19527,13322,65520,46007,52216,14,0
254,253000,29515,6120,62799,36019,59419,2735,0
255,254000,39812,1532,57189,25722,64007,8345,0
256,255000,49408,13,49106,16127,65526,16428,0
257,256000,57366,1690,39418,8168,63849,26116,0
258,257000,62909,6357,29085,2625,59181,36449,0
259,258000,65490,13644,19123,44,51894,46411,0
260,259000,64864,22839,10505,671,42699,55029,0
261,260000,61139,33000,4071,4395,32537,61463,0
262,261000,54652,43128,453,10882,22408,65081,0
263,262000,45955,52232,8,19580,13303,65527,0
264,263000,35970,59426,2734,29565,6108,62800,0
265,264000,25679,64007,8344,39855,1527,57190,0
266,265000,16091,65522,16423,49443,12,49111,0
267,266000,8139,63846,26104,57395,1688,39430,0
268,267000,2598,59184,36430,62936,6351,29104,0
269,268000,15,51904,46387,65519,13631,19147,0
270,269000,636,42715,55004,64898,22820,10530,0
271,270000,4354,32557,61442,61180,32980,4092,0
272,271000,10836,22428,65067,54698,43110,467,0
273,272000,19532,13319,65519,46002,52220,15,0
274,273000,29520,6117,62797,36015,59421,2737,0
275,274000,39816,1530,57186,25718,64009,8348,0
276,275000,49412,13,49103,16123,65526,16432,0
277,276000,57369,1690,39414,8165,63849,26120,0
278,277000,62912,6359,29081,2622,59180,36453,0
279,278000,65491,13646,19120,43,51892,46414,0
280,279000,64864,22841,10503,670,42697,55031,0
281,280000,61138,33002,4070,4396,32535,61464,0
282,281000,54651,43130,453,10884,22406,65081,0
283,282000,45953,52233,8,19581,13302,65526,0
284,283000,35968,59427,2735,29566,6108,62799,0
285,284000,25677,64007,8346,39857,1528,57188,0
286,285000,16090,65520,16426,49444,14,49108,0
287,286000,8139,63844,26107,57396,1691,39427,0
288,287000,2598,59180,36433,62936,6355,29101,0
289,288000,16,51900,46390,65518,13636,19144,0
290,289000,638,42711,55006,64896,22825,10528,0
291,290000,4357,32553,61443,61177,32984,4091,0
292,291000,10840,22424,65066,54694,43114,468,0
293,292000,19536,13315,65518,45998,52223,16,0
294,293000,29524,6115,62794,36010,59424,2740,0
295,294000,39821,1529,57183,25713,64011,8351,0
296,295000,49416,12,49099,16119,65527,16435,0
297,296000,57372,1691,39411,8162,63848,26123,0
298,297000,62914,6360,29078,2620,59179,36456,0
299,298000,65493,13648,19117,42,51890,46417,0
300,299000,64864,22843,10501,670,42695,55034,0
301,300000,61138,33004,4068,4396,32533,61466,0
302,301000,54649,43132,452,10885,22404,65082,0
303,302000,45951,52234,9,19583,13301,65525,0
304,303000,35966,59427,2737,29568,6108,62797,0
305,304000,25676,64006,8348,39858,1528,57186,0
306,305000,16089,65519,16429,49445,15,49106,0
307,306000,8138,63841,26110,57396,1693,39424,0
308,307000,2599,59177,36436,62935,6358,29098,0
309,308000,18,51896,46392,65516,13640,19142,0
310,309000,641,42707,55008,64893,22829,10526,0
311,310000,4361,32548,61444,61174,32988,4090,0
312,311000,10844,22419,65066,54690,43118,468,0
313,312000,19541,13312,65517,45993,52227,17,0
314,313000,29529,6112,62792,36005,59427,2742,0
315,314000,39825,1527,57181,25709,64012,8353,0
316,315000,49420,12,49096,16115,65528,16438,0
317,316000,57375,1691,39407,8159,63848,26127,0
318,317000,62916,6361,29075,2618,59178,36460,0
319,318000,65494,13650,19114,40,51889,46420,0
320,319000,64864,22845,10498,670,42692,55036,0
321,320000,61137,33006,4067,4397,32530,61467,0
322,321000,54648,43133,452,10886,22402,65082,0
323,322000,45949,52235,9,19585,13300,65525,0
324,323000,35964,59427,2738,29570,6107,62796,0
325,324000,25674,64005,8351,39860,1529,57183,0
326,325000,16088,65517,16431,49446,17,49103,0
327,326000,8138,63838,26113,57396,1696,39421,0
328,327000,2599,59173,36439,62935,6361,29095,0
329,328000,19,51892,46395,65515,13644,19139,0
330,329000,643,42702,55010,64891,22834,10524,0
331,330000,4364,32544,61445,61170,32993,4089,0
332,331000,10848,22415,65066,54686,43122,468,0
333,332000,19545,13308,65516,45989,52230,18,0
334,333000,29534,6109,62790,36000,59429,2744,0
335,334000,39830,1525,57178,25704,64014,8356,0
336,335000,49423,11,49092,16111,65528,16442,0
337,336000,57379,1691,39404,8155,63848,26130,0
338,337000,62918,6362,29071,2616,59176,36463,0
339,338000,65495,13651,19111,39,51887,46423,0
340,339000,64864,22847,10496,670,42690,55038,0
341,340000,61136,33008,4065,4398,32528,61469,0
342,341000,54646,43135,452,10888,22401,65082,0
343,342000,45947,52237,10,19587,13299,65524,0
344,343000,35962,59428,2740,29572,6107,62794,0
345,344000,25672,64005,8353,39862,1529,57181,0
346,345000,16086,65515,16434,49448,19,49100,0
347,346000,8137,63836,26116,57397,1698,39418,0
348,347000,2600,59170,36442,62934,6365,29092,0
349,348000,21,51887,46397,65513,13648,19137,0
350,349000,646,42698,55012,64888,22838,10522,0
351,350000,4367,32540,61446,61167,32997,4088,0
352,351000,10852,22411,65066,54682,43126,468,0
353,352000,19550,13305,65515,45984,52234,19,0
354,353000,29538,6107,62788,35996,59432,2746,0
355,354000,39834,1524,57175,25700,64015,8359,0
356,355000,49427,10,49089,16107,65529,16445,0
357,356000,57382,1692,39400,8152,63847,26134,0
358,357000,62920,6363,29068,2614,59175,36466,0
359,358000,65496,13653,19108,38,51885,46426,0
360,359000,64864,22849,10494,670,42688,55040,0
361,360000,61135,33011,4064,4399,32526,61470,0
362,361000,54645,43137,451,10889,22399,65083,0
363,362000,45946,52238,10,19588,13297,65524,0
364,363000,35960,59428,2741,29574,6107,62793,0
365,364000,25671,64004,8355,39863,1530,57179,0
366,365000,16085,65514,16437,49449,20,49097,0
367,366000,8137,63833,26119,57397,1701,39415,0
368,367000,2600,59166,36445,62934,6368,29089,0
369,368000,22,51884,46400,65512,13652,19134,0
370,369000,648,42694,55014,64886,22842,10520,0
371,370000,4371,32535,61447,61163,33002,4087,0
372,371000,10856,22407,65066,54678,43130,468,0
373,372000,19554,13301,65514,45980,52237,21,0
374,373000,29543,6104,62786,35991,59435,2748,0
375,374000,39839,1522,57172,25695,64017,8362,0
376,375000,49431,10,49086,16103,65529,16448,0
377,376000,57385,1692,39397,8149,63847,26137,0
378,377000,62923,6365,29064,2611,59174,36470,0
379,378000,65497,13655,19105,37,51883,46429,0
380,379000,64865,22851,10491,669,42686,55043,0
381,380000,61135,33013,4063,4399,32524,61471,0
382,381000,54644,43139,451,10890,22397,65083,0
383,382000,45944,52239,11,19590,13296,65523,0
384,383000,35958,59428,2743,29576,6106,62791,0
385,384000,25669,64004,8357,39865,1531,57177,0
386,385000,16084,65512,16440,49450,22,49094,0
387,386000,8136,63831,26122,57398,1703,39412,0
388,387000,2601,59163,36448,62933,6372,29087,0
389,388000,24,51879,46402,65510,13656,19132,0
390,389000,651,42689,55015,64883,22847,10519,0
391,390000,4374,32531,61448,61160,33006,4086,0
392,391000,10854,22403,65066,54680,43134,468,0
393,392000,19553,13298,65512,45981,52240,22,0
394,393000,29542,6102,62784,35992,59437,2750,0
395,394000,39837,1520,57169,25697,64019,8365,0
396,395000,49429,9,49083,16105,65530,16452,0
397,396000,57382,1692,39393,8152,63847,26141,0
398,397000,62919,6366,29061,2615,59173,36473,0
399,398000,65492,13657,19102,42,51881,46432,0
400,399000,64859,22853,10489,675,42684,55045,0
401,400000,61128,33015,4061,4406,32522,61473,0
402,401000,54636,43141,450,10898,22395,65084,0
403,402000,45936,52240,12,19598,13295,65522,0
404,403000,35950,59429,2744,29584,6106,62790,0
405,404000,25661,64003,8360,39873,1531,57174,0
406,405000,16077,65511,16442,49457,23,49092,0
407,406000,8130,63828,26125,57404,1706,39409,0
408,407000,2595,59160,36450,62939,6375,29084,0
409,408000,19,51881,46405,65515,13654,19129,0
410,409000,647,42691,55017,64887,22845,10517,0
411,410000,4372,32532,61449,61163,33004,4085,0
412,411000,10858,22405,65066,54676,43132,468,0
413,412000,19557,13300,65511,45977,52238,23,0
414,413000,29546,6105,62782,35988,59434,2752,0
