RTDS Simulation, 0,1999
13,12A,1D
1,IaBus1,,,KA,9.57769E-5,-2.46975,0,0,65535,1.0,1.0,P
2,IbBus1,,,KA,7.33528E-5,-2.45281,0,0,65535,1.0,1.0,P
3,IcBus1,,,KA,3.63224E-5,-1.2215,0,0,65535,1.0,1.0,P
4,IaBus2,,,KA,1.13541E-4,-2.71942,0,0,65535,1.0,1.0,P
5,IbBus2,,,KA,4.0051E-5,-1.62511,0,0,65535,1.0,1.0,P
6,IcBus2,,,KA,6.23037E-5,-2.06,0,0,65535,1.0,1.0,P
7,IaBus3,,,KA,1.24018E-4,-3.51469,0,0,65535,1.0,1.0,P
8,IbBus3,,,KA,5.83746E-5,-1.94718,0,0,65535,1.0,1.0,P
9,IcBus3,,,KA,1.07308E-4,-3.50992,0,0,65535,1.0,1.0,P
10,IaBus4,,,KA,3.69558E-4,-9.67189,0,0,65535,1.0,1.0,P
11,IbBus4,,,KA,1.2462E-4,-2.89901,0,0,65535,1.0,1.0,P
12,IcBus4,,,KA,1.78487E-4,-5.26677,0,0,65535,1.0,1.0,P
1,LGFLT,0,,0
50.0
1
1000.0,2000
02/03/2020,17:42:09.159000
02/03/2020,17:42:10.159000
ASCII
1
1,0,30008,39554,10143,21281,39874,38379,21083,27573,44241,28332,22597,25498,0
2,1000,27380,42315,11496,21979,37064,38911,23705,21318,44612,27919,24805,24814,0
3,2000,24595,44203,15030,22863,34623,38869,26777,16253,43817,27338,26850,24587,0
4,3000,21920,45040,20395,23857,32767,38253,30004,12857,41935,26643,28545,24842,0
5,4000,19625,44745,27041,24867,31659,37126,33073,11463,39148,25897,29728,25558,0
6,5000,17936,43344,34325,25782,31422,35612,35672,12216,35735,25182,30276,26657,0
7,6000,17017,40962,41557,26513,32088,33851,37554,15037,32026,24564,30143,28029,0
8,7000,16952,37849,48014,26998,33593,31998,38537,19655,28376,24102,29328,29557,0
9,8000,17749,34310,53059,27187,35772,30250,38521,25610,25155,23843,27922,31076,0
10,9000,19341,30679,56193,27058,38405,28793,37507,32317,22677,23810,26070,32437,0
11,10000,21563,27316,57130,26621,41274,27748,35596,39141,21176,24010,23932,33514,0
12,11000,24192,24555,55774,25923,44086,27215,32973,45396,20805,24423,21723,34199,0
13,12000,26979,22667,52237,25039,46528,27256,29902,50461,21599,25003,19677,34427,0
14,13000,29654,21829,46872,24045,48384,27873,26674,53858,23481,25699,17983,34172,0
15,14000,31948,22125,40227,23032,49495,29001,23604,55252,26269,26445,16798,33454,0
16,15000,33636,23528,32942,22117,49732,30515,21005,54499,29683,27161,16249,32355,0
17,16000,34555,25910,25709,21387,49065,32276,19124,51677,33392,27779,16383,30983,0
18,17000,34620,29023,19253,20902,47557,34132,18141,47058,37043,28241,17199,29454,0
19,18000,33823,32560,14211,20713,45376,35880,18158,41102,40263,28500,18608,27934,0
20,19000,32231,36190,11079,20843,42741,37336,19172,34395,42740,28532,20460,26574,0
21,20000,30008,39554,10143,21281,39874,38379,21083,27573,44241,28332,22597,25498,0
22,21000,27380,42315,11496,21979,37064,38911,23705,21318,44612,27919,24805,24814,0
23,22000,24595,44203,15030,22863,34623,38869,26777,16253,43817,27338,26850,24587,0
24,23000,21920,45040,20395,23857,32767,38253,30004,12857,41935,26643,28545,24842,0
25,24000,19625,44745,27041,24867,31659,37126,33073,11463,39148,25897,29728,25558,0
26,25000,17936,43344,34325,25782,31422,35612,35672,12216,35735,25182,30276,26657,0
27,26000,17017,40962,41557,26513,32088,33851,37554,15037,32026,24564,30143,28029,0
28,27000,16952,37849,48014,26998,33593,31998,38537,19655,28376,24102,29328,29557,0
29,28000,17749,34310,53059,27187,35772,30250,38521,25610,25155,23843,27922,31076,0
30,29000,19341,30679,56193,27058,38405,28793,37507,32317,22677,23810,26070,32437,0
31,30000,21563,27316,57130,26621,41274,27748,35596,39141,21176,24010,23932,33514,0
32,31000,24192,24555,55774,25923,44086,27215,32973,45396,20805,24423,21723,34199,0
33,32000,26979,22667,52237,25039,46528,27256,29902,50461,21599,25003,19677,34427,0
34,33000,29654,21829,46872,24045,48384,27873,26674,53858,23481,25699,17983,34172,0
35,34000,31948,22125,40227,23032,49495,29001,23604,55252,26269,26445,16798,33454,0
36,35000,33636,23528,32942,22117,49732,30515,21005,54499,29683,27161,16249,32355,0
37,36000,34555,25910,25709,21387,49065,32276,19124,51677,33392,27779,16383,30983,0
38,37000,34620,29023,19253,20902,47557,34132,18141,47058,37043,28241,17199,29454,0
39,38000,33823,32560,14211,20713,45376,35880,18158,41102,40263,28500,18608,27934,0
40,39000,32231,36190,11078,20843,42741,37336,19172,34395,42740,28532,20460,26574,0
41,40000,30008,39554,10143,21281,39874,38379,21083,27573,44241,28332,22597,25498,0
42,41000,27380,42315,11496,21979,37064,38911,23705,21318,44612,27919,24805,24814,0
43,42000,24595,44203,15030,22863,34623,38869,26777,16253,43817,27338,26850,24587,0
44,43000,21920,45040,20395,23857,32767,38253,30004,12857,41935,26643,28545,24842,0
45,44000,19625,44745,27041,24867,31659,37126,33073,11463,39148,25897,29728,25558,0
46,45000,17936,43344,34325,25782,31422,35612,35672,12216,35735,25182,30276,26657,0
47,46000,17017,40962,41557,26513,32088,33851,37554,15037,32026,24564,30143,28029,0
48,47000,16952,37849,48014,26998,33593,31998,38537,19655,28376,24102,29328,29557,0
49,48000,17749,34310,53059,27187,35772,30250,38521,25610,25155,23843,27922,31076,0
50,49000,19341,30679,56193,27058,38405,28793,37507,32317,22677,23810,26070,32437,0
51,50000,21563,27316,57130,26621,41274,27748,35596,39141,21176,24010,23932,33514,0
52,51000,24192,24555,55774,25923,44086,27215,32973,45396,20805,24423,21723,34199,0
53,52000,26979,22667,52237,25039,46528,27256,29902,50461,21599,25003,19677,34427,0
54,53000,29654,21829,46872,24045,48384,27873,26674,53858,23481,25699,17983,34172,0
55,54000,31948,22125,40227,23032,49495,29001,23604,55252,26269,26445,16798,33454,0
56,55000,33636,23528,32942,22117,49732,30515,21005,54499,29683,27161,16249,32355,0
57,56000,34555,25910,25709,21387,49065,32276,19124,51677,33392,27779,16383,30983,0
58,57000,34620,29023,19253,20902,47557,34132,18141,47058,37043,28241,17199,29454,0
59,58000,33823,32560,14211,20713,45376,35880,18158,41102,40263,28500,18608,27934,0
60,59000,32231,36190,11078,20843,42741,37336,19172,34395,42740,28532,20460,26574,0
61,60000,30008,39554,10143,21281,39874,38379,21083,27573,44241,28332,22597,25498,0
62,61000,27380,42315,11496,21979,37064,38911,23705,21318,44612,27919,24805,24814,0
63,62000,24595,44203,15030,22863,34623,38869,26777,16253,43817,27338,26850,24587,0
64,63000,21920,45040,20395,23857,32767,38253,30004,12857,41935,26643,28545,24842,0
65,64000,19625,44745,27041,24867,31659,37126,33073,11463,39148,25897,29728,25558,0
66,65000,17936,43344,34325,25782,31422,35612,35672,12216,35735,25182,30276,26657,0
67,66000,17017,40962,41557,26513,32088,33851,37554,15037,32026,24564,30143,28029,0
68,67000,16952,37849,48014,26998,33593,31998,38537,19655,28376,24102,29328,29557,0
69,68000,17749,34310,53059,27187,35772,30250,38521,25610,25155,23843,27922,31076,0
70,69000,19341,30679,56193,27058,38405,28793,37507,32317,22677,23810,26070,32437,0
71,70000,21563,27316,57130,26621,41274,27748,35596,39141,21176,24010,23932,33514,0
72,71000,24192,24555,55774,25923,44086,27215,32973,45396,20805,24423,21723,34199,0
73,72000,26979,22667,52237,25039,46528,27256,29902,50461,21599,25003,19677,34427,0
74,73000,29654,21829,46872,24045,48384,27873,26674,53858,23481,25699,17983,34172,0
75,74000,31948,22125,40227,23032,49495,29001,23604,55252,26269,26445,16798,33454,0
76,75000,33636,23528,32942,22117,49732,30515,21005,54499,29683,27161,16249,32355,0
77,76000,34555,25910,25709,21387,49065,32276,19124,51677,33392,27779,16383,30983,0
78,77000,34620,29023,19253,20902,47557,34132,18141,47058,37043,28241,17199,29454,0
79,78000,33823,32560,14211,20713,45376,35880,18158,41102,40263,28500,18608,27934,0
80,79000,32231,36190,11078,20843,42741,37336,19172,34395,42740,28532,20460,26574,0
81,80000,30008,39554,10143,21281,39874,38379,21083,27573,44241,28332,22597,25498,0
82,81000,27380,42315,11496,21979,37064,38911,23705,21318,44612,27919,24805,24814,0
83,82000,24595,44203,15030,22863,34623,38869,26777,16253,43817,27338,26850,24587,0
84,83000,21920,45040,20395,23857,32767,38253,30004,12857,41935,26643,28545,24842,0
85,84000,19625,44745,27041,24867,31659,37126,33073,11463,39148,25897,29728,25558,0
86,85000,17936,43344,34325,25782,31422,35612,35672,12216,35735,25182,30276,26657,0
87,86000,17017,40962,41557,26513,32088,33851,37554,15037,32026,24564,30143,28029,0
88,87000,16952,37849,48014,26998,33593,31998,38537,19655,28376,24102,29328,29557,0
89,88000,17749,34310,53059,27187,35772,30250,38521,25610,25155,23843,27922,31076,0
90,89000,19341,30679,56193,27058,38405,28793,37507,32317,22677,23810,26070,32437,0
91,90000,21563,27316,57130,26621,41274,27748,35596,39141,21176,24010,23932,33514,0
92,91000,24192,24555,55774,25923,44086,27215,32973,45396,20805,24423,21723,34199,0
93,92000,26979,22667,52237,25039,46528,27256,29902,50461,21599,25003,19677,34427,0
94,93000,29654,21829,46872,24045,48384,27873,26674,53858,23481,25699,17983,34172,0
95,94000,31948,22125,40227,23032,49495,29001,23604,55252,26269,26445,16798,33454,0
96,95000,33636,23528,32942,22117,49732,30515,21005,54499,29683,27161,16249,32355,0
97,96000,34555,25910,25709,21387,49065,32276,19124,51677,33392,27779,16383,30983,0
98,97000,34620,29023,19253,20902,47557,34132,18141,47058,37043,28241,17199,29454,0
99,98000,33823,32560,14211,20713,45376,35880,18158,41102,40263,28500,18608,27934,0
100,99000,32231,36190,11078,20843,42741,37336,19172,34395,42740,28532,20460,26574,0
101,100000,30008,39554,10143,21281,39874,38379,21083,27573,44241,28332,22597,25498,0
102,101000,27380,42315,11496,21979,37064,38911,23705,21318,44612,27919,24805,24814,0
103,102000,24595,44203,15030,22863,34623,38869,26777,16253,43817,27338,26850,24587,0
104,103000,21920,45040,20395,23857,32767,38253,30004,12857,41935,26643,28545,24842,0
105,104000,19625,44745,27041,24867,31659,37126,33073,11463,39148,25897,29728,25558,0
106,105000,17936,43344,34325,25782,31422,35612,35672,12216,35735,25182,30276,26657,0
107,106000,17017,40962,41557,26513,32088,33851,37554,15037,32026,24564,30142,28029,0
108,107000,16952,37849,48014,26998,33593,31998,38537,19655,28376,24102,29328,29557,0
109,108000,17749,34310,53059,27187,35772,30250,38521,25610,25155,23843,27922,31076,0
110,109000,19341,30679,56193,27058,38405,28793,37507,32317,22677,23810,26070,32437,0
111,110000,21563,27316,57130,26621,41274,27748,35596,39141,21176,24010,23932,33514,0
112,111000,24192,24555,55774,25923,44086,27215,32973,45396,20805,24423,21723,34199,0
113,112000,26979,22667,52237,25039,46528,27256,29902,50461,21599,25003,19677,34427,0
114,113000,29654,21829,46872,24045,48384,27873,26674,53858,23481,25699,17983,34172,0
115,114000,31948,22125,40227,23032,49495,29001,23604,55252,26269,26445,16798,33454,0
116,115000,33636,23528,32942,22117,49732,30515,21005,54499,29683,27161,16249,32355,0
117,116000,34555,25910,25709,21387,49065,32276,19124,51677,33392,27779,16383,30983,0
118,117000,34620,29023,19253,20902,47557,34132,18141,47058,37043,28241,17199,29454,0
119,118000,33823,32560,14211,20713,45376,35880,18158,41102,40263,28500,18608,27934,0
120,119000,32231,36190,11078,20843,42741,37336,19172,34395,42740,28532,20460,26574,0
121,120000,30008,39554,10143,21281,39874,38379,21083,27573,44241,28332,22597,25498,0
122,121000,27380,42315,11496,21979,37064,38911,23705,21318,44612,27919,24805,24814,0
123,122000,24595,44203,15030,22863,34623,38869,26777,16253,43817,27338,26850,24587,0
124,123000,21920,45040,20395,23857,32767,38253,30004,12857,41935,26643,28545,24842,0
125,124000,19625,44745,27041,24867,31659,37126,33073,11463,39148,25897,29728,25558,0
126,125000,17936,43344,34325,25782,31422,35612,35672,12216,35735,25182,30276,26657,0
127,126000,17017,40962,41557,26513,32088,33851,37554,15037,32026,24564,30142,28029,0
128,127000,16952,37849,48014,26998,33593,31998,38537,19655,28376,24102,29328,29557,0
129,128000,17749,34310,53059,27187,35772,30250,38521,25610,25155,23843,27922,31076,0
130,129000,19341,30679,56193,27058,38405,28793,37507,32317,22677,23810,26070,32437,0
131,130000,21563,27316,57130,26621,41274,27748,35596,39141,21176,24010,23932,33514,0
132,131000,24192,24555,55774,25923,44086,27215,32973,45396,20805,24423,21723,34199,0
133,132000,26979,22667,52237,25039,46528,27256,29902,50461,21599,25003,19677,34427,0
134,133000,29654,21829,46872,24045,48384,27873,26674,53858,23481,25699,17983,34172,0
135,134000,31948,22125,40227,23032,49495,29001,23604,55252,26269,26445,16798,33454,0
136,135000,33636,23528,32942,22117,49732,30515,21005,54499,29683,27161,16249,32355,0
137,136000,34555,25910,25709,21387,49065,32276,19124,51677,33392,27779,16383,30983,0
138,137000,34620,29023,19253,20902,47557,34132,18141,47058,37043,28241,17199,29454,0
139,138000,33823,32560,14211,20713,45376,35880,18158,41102,40263,28500,18608,27934,0
140,139000,32231,36190,11078,20843,42741,37336,19172,34395,42740,28532,20460,26574,0
141,140000,30008,39554,10143,21281,39874,38379,21083,27573,44241,28332,22597,25498,0
142,141000,27380,42315,11496,21979,37064,38911,23705,21318,44612,27919,24805,24814,0
143,142000,24595,44203,15030,22863,34623,38869,26777,16253,43817,27338,26850,24587,0
144,143000,21920,45040,20395,23857,32767,38253,30004,12857,41935,26643,28545,24842,0
145,144000,19625,44745,27041,24867,31659,37126,33073,11463,39148,25897,29728,25558,0
146,145000,17936,43344,34325,25782,31422,35612,35672,12216,35735,25182,30276,26657,0
147,146000,17017,40962,41557,26513,32088,33851,37554,15037,32026,24564,30142,28029,0
148,147000,16952,37849,48014,26998,33593,31998,38537,19655,28376,24102,29328,29557,0
149,148000,17749,34310,53059,27187,35772,30250,38521,25610,25155,23843,27922,31076,0
150,149000,19341,30679,56193,27058,38405,28793,37507,32317,22677,23810,26070,32437,0
151,150000,21563,27316,57130,26621,41274,27748,35596,39141,21176,24010,23932,33514,0
152,151000,24192,24555,55774,25923,44086,27215,32973,45396,20805,24423,21723,34199,0
153,152000,26979,22667,52237,25039,46528,27256,29902,50461,21599,25003,19677,34427,0
154,153000,29654,21829,46872,24045,48384,27873,26674,53858,23481,25699,17983,34172,0
155,154000,31948,22125,40227,23032,49495,29001,23604,55252,26269,26445,16798,33454,0
156,155000,33636,23528,32942,22117,49732,30515,21005,54499,29683,27161,16249,32355,0
157,156000,34555,25910,25709,21387,49065,32276,19124,51677,33392,27779,16383,30983,0
158,157000,34620,29023,19253,20902,47557,34132,18141,47058,37043,28241,17199,29454,0
159,158000,33823,32560,14211,20713,45376,35880,18158,41102,40263,28500,18608,27934,0
160,159000,32231,36190,11078,20843,42741,37336,19172,34395,42740,28532,20460,26574,0
161,160000,30008,39554,10143,21281,39874,38379,21083,27573,44241,28332,22597,25498,0
162,161000,27380,42315,11496,21979,37064,38911,23705,21318,44612,27919,24804,24814,0
163,162000,24595,44203,15030,22863,34623,38869,26777,16253,43817,27338,26850,24587,0
164,163000,21920,45040,20395,23857,32767,38253,30004,12857,41935,26643,28545,24842,0
165,164000,19625,44745,27041,24867,31659,37126,33073,11463,39148,25897,29728,25558,0
166,165000,17936,43344,34325,25782,31422,35612,35672,12216,35735,25182,30276,26657,0
167,166000,17017,40962,41557,26513,32088,33851,37554,15037,32026,24564,30142,28029,0
168,167000,16952,37849,48014,26998,33593,31998,38537,19655,28376,24102,29328,29557,0
169,168000,17749,34310,53059,27187,35772,30250,38521,25610,25155,23843,27922,31076,0
170,169000,19341,30679,56193,27058,38405,28793,37507,32317,22677,23810,26070,32437,0
171,170000,21563,27316,57130,26621,41274,27748,35596,39141,21176,24010,23932,33514,0
172,171000,24192,24555,55774,25923,44086,27215,32973,45396,20805,24423,21723,34199,0
173,172000,26979,22667,52237,25039,46528,27256,29902,50461,21599,25003,19677,34427,0
174,173000,29654,21829,46872,24045,48384,27873,26674,53858,23481,25699,17983,34172,0
175,174000,31948,22125,40227,23032,49495,29001,23604,55252,26269,26445,16798,33454,0
176,175000,33636,23528,32942,22117,49732,30515,21005,54499,29683,27161,16249,32355,0
177,176000,34555,25910,25709,21387,49065,32276,19124,51677,33392,27779,16383,30983,0
178,177000,34620,29023,19253,20902,47557,34132,18141,47058,37043,28241,17199,29454,0
179,178000,33823,32560,14211,20713,45376,35880,18158,41102,40263,28500,18608,27934,0
180,179000,32231,36190,11078,20843,42741,37336,19172,34395,42740,28532,20460,26574,0
181,180000,30008,39554,10143,21281,39874,38379,21083,27573,44241,28332,22597,25498,0
182,181000,27380,42315,11496,21979,37064,38911,23705,21318,44612,27919,24804,24814,0
183,182000,24595,44203,15030,22863,34623,38869,26777,16253,43817,27338,26850,24587,0
184,183000,21920,45040,20395,23857,32767,38253,30004,12857,41935,26643,28545,24842,0
185,184000,19625,44745,27041,24867,31659,37126,33073,11463,39148,25897,29728,25558,0
186,185000,17936,43344,34325,25782,31422,35612,35672,12216,35735,25182,30276,26657,0
187,186000,17017,40962,41557,26513,32088,33851,37554,15037,32026,24564,30142,28029,0
188,187000,16952,37849,48014,26998,33593,31998,38537,19655,28376,24102,29328,29557,0
189,188000,17749,34310,53059,27187,35772,30250,38521,25610,25155,23843,27922,31076,0
190,189000,19341,30679,56193,27058,38405,28793,37507,32317,22677,23810,26070,32437,0
191,190000,21563,27316,57130,26621,41274,27748,35596,39141,21176,24010,23932,33514,0
192,191000,24192,24555,55774,25923,44086,27215,32973,45396,20805,24423,21723,34199,0
193,192000,26979,22667,52237,25039,46528,27256,29902,50461,21599,25003,19677,34427,0
194,193000,29654,21829,46872,24045,48384,27873,26674,53858,23481,25699,17983,34172,0
195,194000,31948,22125,40227,23032,49495,29001,23604,55252,26269,26445,16798,33454,0
196,195000,33636,23528,32942,22117,49732,30515,21005,54499,29683,27161,16249,32356,0
197,196000,34555,25910,25709,21387,49065,32276,19124,51677,33392,27779,16383,30983,0
198,197000,34620,29023,19253,20902,47557,34132,18141,47058,37043,28241,17199,29454,0
199,198000,33823,32560,14211,20713,45376,35880,18158,41102,40263,28500,18608,27934,0
200,199000,32231,36190,11078,20843,42741,37336,19172,34395,42740,28532,20460,26574,0
201,200000,30008,39554,10143,21281,39874,38379,21083,27573,44241,28332,22597,25498,0
202,201000,27380,42315,11496,21979,37064,38911,23705,21318,44612,27919,24804,24814,0
203,202000,24595,44203,15030,22863,34623,38869,26777,16253,43817,27338,26850,24587,0
204,203000,21920,45040,20395,23857,32767,38253,30004,12857,41935,26643,28545,24842,0
205,204000,19625,44745,27041,24867,31659,37126,33073,11463,39148,25897,29728,25558,0
206,205000,17936,43344,34325,25782,31422,35612,35672,12216,35735,25182,30276,26657,0
207,206000,17017,40962,41557,26513,32088,33851,37554,15037,32026,24564,30142,28029,0
208,207000,16952,37849,48014,26998,33593,31998,38537,19655,28376,24102,29328,29557,0
209,208000,17749,34310,53059,27187,35772,30250,38521,25610,25155,23843,27922,31076,0
210,209000,19341,30679,56193,27058,38405,28793,37507,32317,22677,23810,26070,32437,0
211,210000,21563,27316,57130,26621,41274,27748,35596,39141,21176,24010,23932,33514,0
212,211000,24192,24555,55774,25923,44086,27215,32973,45396,20805,24423,21723,34199,0
213,212000,26979,22667,52237,25039,46528,27256,29902,50461,21599,25003,19677,34427,0
214,213000,29654,21829,46872,24045,48384,27873,26674,53858,23481,25699,17983,34172,0
215,214000,31948,22125,40227,23032,49495,29001,23604,55252,26269,26445,16798,33454,0
216,215000,33636,23528,32942,22117,49732,30515,21005,54499,29683,27161,16249,32356,0
217,216000,34555,25910,25709,21387,49065,32276,19124,51677,33392,27779,16383,30983,0
218,217000,34620,29023,19253,20902,47557,34132,18141,47058,37043,28241,17199,29454,0
219,218000,33823,32560,14211,20713,45376,35880,18158,41102,40263,28500,18608,27934,0
220,219000,32231,36190,11078,20843,42741,37336,19172,34395,42740,28532,20460,26574,0
221,220000,30008,39554,10143,21281,39874,38379,21083,27573,44241,28332,22597,25498,0
222,221000,27380,42315,11496,21979,37064,38911,23705,21318,44612,27919,24804,24814,0
223,222000,24595,44203,15030,22863,34623,38869,26777,16253,43817,27338,26850,24587,0
224,223000,21920,45040,20395,23857,32767,38253,30004,12857,41935,26643,28545,24842,0
225,224000,19625,44745,27041,24867,31659,37126,33073,11463,39148,25897,29728,25558,0
226,225000,17936,43344,34325,25782,31422,35612,35672,12216,35735,25182,30276,26657,0
227,226000,17017,40962,41557,26513,32088,33851,37554,15037,32026,24564,30142,28029,0
228,227000,16952,37849,48014,26998,33593,31998,38537,19655,28376,24102,29328,29557,0
