RTDS Simulation, 0,1999
13,12A,1D
1,IaBus1,,,KA,9.67169E-5,-4.07276,0,0,65535,1.0,1.0,P
2,IbBus1,,,KA,1.06764E-4,-2.53935,0,0,65535,1.0,1.0,P
3,IcBus1,,,KA,9.28036E-5,-2.79648,0,0,65535,1.0,1.0,P
4,IaBus2,,,KA,9.84328E-5,-3.92213,0,0,65535,1.0,1.0,P
5,IbBus2,,,KA,9.08551E-5,-2.9945,0,0,65535,1.0,1.0,P
6,IcBus2,,,KA,1.07429E-4,-2.80133,0,0,65535,1.0,1.0,P
7,IaBus3,,,KA,1.22819E-4,-4.93986,0,0,65535,1.0,1.0,P
8,IbBus3,,,KA,1.25457E-4,-3.34508,0,0,65535,1.0,1.0,P
9,IcBus3,,,KA,1.0299E-4,-3.37977,0,0,65535,1.0,1.0,P
10,IaBus4,,,KA,3.16194E-4,-7.85171,0,0,65535,1.0,1.0,P
11,IbBus4,,,KA,3.07429E-4,-11.5035,0,0,65535,1.0,1.0,P
12,IcBus4,,,KA,2.75509E-4,-9.2945,0,0,65535,1.0,1.0,P
1,LGFLT,0,,0
50.0
1
1000.0,2000
02/03/2020,17:45:36.448000
02/03/2020,17:45:37.448000
ASCII
1
1,0,44783,18060,33933,40414,33797,24848,39912,32875,25617,23957,36623,35625,0
2,1000,46443,18169,32076,39993,34176,24911,37702,33606,27361,24438,36175,35574,0
3,2000,47679,18826,30031,39537,34445,25100,35733,33656,29648,24967,35847,35334,0
4,3000,48366,19978,27991,39111,34567,25387,34202,33022,32245,25484,35669,34939,0
5,4000,48442,21507,26154,38748,34527,25754,33251,31768,34908,25943,35662,34419,0
6,5000,47903,23249,24711,38478,34337,26164,32973,30020,37370,26300,35826,33825,0
7,6000,46798,25039,23803,38334,34032,26554,33395,27959,39377,26519,36136,33228,0
8,7000,45231,26708,23516,38328,33637,26892,34472,25778,40749,26582,36563,32680,0
9,8000,43373,28083,23871,38459,33177,27161,36099,23685,41358,26478,37076,32229,0
10,9000,41404,29031,24832,38696,32719,27330,38109,21897,41138,26225,37611,31921,0
11,10000,39503,29465,26314,39017,32308,27383,40310,20581,40117,25852,38120,31783,0
12,11000,37863,29346,28160,39414,31960,27316,42503,19853,38389,25378,38560,31833,0
13,12000,36644,28690,30186,39840,31707,27141,44462,19794,36125,24857,38887,32065,0
14,13000,35962,27549,32210,40240,31579,26882,45995,20411,33546,24346,39070,32448,0
15,14000,35877,26037,34036,40596,31594,26542,46963,21644,30888,23885,39087,32959,0
16,15000,36399,24310,35479,40881,31751,26147,47264,23380,28413,23520,38932,33553,0
17,16000,37484,22528,36397,41054,32027,25754,46862,25444,26379,23290,38627,34157,0
18,17000,39037,20856,36704,41092,32412,25395,45796,27640,24975,23217,38198,34719,0
19,18000,40893,19464,36371,40986,32882,25096,44164,29759,24343,23317,37678,35183,0
20,19000,42870,18495,35426,40751,33372,24898,42131,31575,24554,23575,37128,35500,0
21,20000,44787,18046,33944,40410,33825,24827,39899,32912,25587,23961,36604,35641,0
22,21000,46452,18155,32083,39980,34206,24897,37679,33643,27343,24449,36155,35584,0
23,22000,47691,18814,30034,39517,34474,25093,35701,33689,29644,24982,35829,35338,0
24,23000,48380,19968,27988,39087,34592,25388,34166,33049,32256,25501,35655,34935,0
25,24000,48457,21500,26147,38721,34545,25764,33213,31785,34932,25962,35652,34409,0
26,25000,47918,23246,24700,38451,34346,26180,32937,30027,37404,26318,35822,33810,0
27,26000,46810,25041,23789,38310,34033,26576,33365,27954,39419,26534,36137,33209,0
28,27000,45240,26713,23500,38310,33628,26917,34450,25762,40795,26593,36571,32659,0
29,28000,43378,28092,23855,38447,33159,27186,36088,23659,41402,26484,37089,32207,0
30,29000,41404,29043,24818,38693,32694,27354,38110,21864,41177,26226,37628,31902,0
31,30000,39498,29478,26303,39023,32278,27403,40323,20543,40146,25846,38139,31768,0
32,31000,37854,29361,28153,39429,31929,27329,42527,19815,38406,25367,38580,31824,0
33,32000,36631,28703,30184,39862,31676,27147,44495,19760,36128,24842,38906,32062,0
34,33000,35947,27560,32213,40267,31553,26880,46033,20383,33535,24327,39085,32452,0
35,34000,35862,26044,34044,40626,31575,26531,47002,21626,30864,23865,39098,32970,0
36,35000,36384,24313,35491,40911,31740,26129,47301,23373,28378,23501,38937,33569,0
37,36000,37471,22527,36413,41081,32025,25731,46893,25448,26336,23274,38626,34177,0
38,37000,39028,20850,36720,41114,32420,25369,45818,27656,24929,23205,38191,34740,0
39,38000,40887,19455,36387,40999,32899,25070,44175,29784,24298,23310,37665,35205,0
40,39000,42869,18483,35440,40756,33396,24873,42130,31608,24516,23574,37112,35519,0
41,40000,44792,18032,33955,40406,33854,24807,39887,32949,25558,23966,36586,35656,0
42,41000,46460,18142,32090,39967,34237,24883,37656,33680,27326,24459,36136,35594,0
43,42000,47703,18801,30036,39498,34503,25087,35670,33723,29641,24996,35811,35341,0
44,43000,48394,19957,27985,39062,34616,25390,34130,33075,32267,25519,35640,34931,0
45,44000,48472,21493,26139,38694,34563,25773,33175,31803,34955,25980,35642,34399,0
46,45000,47932,23243,24688,38425,34356,26196,32902,30033,37438,26336,35817,33794,0
47,46000,46822,25042,23775,38286,34033,26597,33335,27949,39461,26550,36139,33190,0
48,47000,45249,26718,23485,38291,33619,26942,34429,25746,40839,26604,36578,32638,0
49,48000,43383,28101,23839,38436,33141,27211,36077,23634,41446,26490,37101,32186,0
50,49000,41404,29055,24804,38690,32669,27377,38111,21831,41215,26226,37645,31883,0
51,50000,39494,29492,26292,39029,32249,27422,40336,20507,40176,25841,38158,31753,0
52,51000,37845,29375,28146,39443,31897,27342,42551,19778,38424,25356,38600,31814,0
53,52000,36618,28716,30182,39883,31646,27153,44526,19726,36132,24827,38924,32059,0
54,53000,35932,27570,32216,40294,31526,26878,46070,20356,33525,24309,39100,32456,0
55,54000,35846,26052,34052,40656,31555,26521,47041,21608,30840,23846,39108,32981,0
56,55000,36368,24317,35503,40940,31728,26112,47337,23366,28343,23482,38942,33584,0
57,56000,37458,22526,36428,41108,32024,25708,46924,25453,26294,23257,38625,34196,0
58,57000,39018,20845,36737,41135,32427,25343,45840,27671,24884,23192,38184,34762,0
59,58000,40882,19446,36404,41013,32916,25043,44186,29810,24254,23303,37653,35226,0
60,59000,42868,18471,35454,40761,33420,24848,42130,31640,24477,23573,37096,35539,0
61,60000,44796,18019,33966,40402,33882,24787,39875,32984,25528,23971,36567,35671,0
62,61000,46468,18128,32097,39955,34266,24869,37633,33716,27308,24469,36117,35603,0
63,62000,47715,18788,30038,39479,34532,25080,35640,33755,29637,25010,35794,35344,0
64,63000,48408,19947,27983,39038,34641,25392,34094,33101,32277,25536,35626,34928,0
65,64000,48486,21485,26133,38668,34580,25783,33138,31820,34979,25999,35632,34388,0
66,65000,47946,23240,24677,38398,34366,26212,32867,30040,37472,26353,35813,33779,0
67,66000,46835,25044,23760,38262,34034,26618,33306,27944,39502,26565,36140,33171,0
68,67000,45258,26723,23470,38273,33609,26966,34408,25730,40885,26616,36586,32616,0
69,68000,43388,28110,23824,38425,33124,27236,36066,23608,41489,26496,37113,32166,0
70,69000,41404,29067,24790,38687,32645,27400,38112,21799,41253,26227,37661,31865,0
71,70000,39489,29506,26281,39035,32220,27441,40348,20471,40205,25835,38176,31738,0
72,71000,37836,29389,28140,39458,31866,27356,42573,19742,38441,25345,38619,31805,0
73,72000,36606,28730,30180,39904,31615,27159,44558,19693,36135,24812,38942,32056,0
74,73000,35917,27581,32219,40321,31500,26875,46106,20329,33514,24291,39115,32460,0
75,74000,35830,26059,34060,40685,31535,26510,47079,21590,30816,23827,39119,32991,0
76,75000,36353,24320,35515,40969,31717,26095,47374,23359,28309,23464,38947,33600,0
77,76000,37445,22525,36442,41134,32022,25685,46954,25457,26252,23241,38624,34216,0
78,77000,39008,20839,36753,41156,32435,25317,45862,27687,24839,23181,38177,34783,0
79,78000,40876,19437,36420,41026,32932,25017,44197,29835,24210,23296,37641,35248,0
80,79000,42868,18460,35468,40766,33444,24824,42130,31672,24438,23571,37080,35558,0
81,80000,44800,18006,33977,40398,33910,24766,39863,33020,25499,23975,36549,35686,0
82,81000,46477,18115,32104,39943,34296,24855,37611,33752,27291,24479,36098,35613,0
83,82000,47726,18776,30040,39460,34560,25074,35610,33788,29633,25024,35776,35347,0
84,83000,48422,19937,27980,39014,34665,25393,34059,33128,32287,25552,35612,34925,0
85,84000,48502,21479,26124,38641,34598,25792,33101,31838,35001,26016,35622,34379,0
86,85000,47960,23237,24666,38372,34375,26229,32832,30047,37505,26370,35808,33764,0
87,86000,46847,25044,23747,38239,34034,26640,33276,27940,39542,26580,36141,33152,0
88,87000,45268,26729,23453,38255,33601,26990,34386,25715,40928,26627,36592,32596,0
89,88000,43392,28119,23809,38414,33106,27261,36056,23583,41533,26502,37126,32145,0
90,89000,41404,29079,24776,38685,32620,27424,38112,21767,41292,26227,37677,31846,0
91,90000,39484,29520,26270,39041,32191,27461,40360,20435,40234,25830,38195,31724,0
92,91000,37827,29403,28133,39472,31835,27369,42596,19705,38459,25335,38638,31795,0
93,92000,36593,28743,30178,39926,31586,27165,44588,19659,36139,24797,38960,32053,0
94,93000,35902,27592,32222,40347,31474,26873,46142,20302,33504,24274,39130,32463,0
95,94000,35814,26067,34067,40714,31516,26500,47117,21572,30793,23808,39129,33001,0
96,95000,36338,24323,35527,40998,31706,26077,47409,23351,28275,23446,38952,33615,0
97,96000,37432,22524,36457,41160,32020,25663,46985,25461,26211,23225,38623,34235,0
98,97000,38999,20834,36769,41176,32443,25291,45884,27702,24795,23169,38171,34804,0
99,98000,40871,19428,36436,41039,32949,24990,44209,29859,24166,23289,37629,35269,0
100,99000,42867,18448,35483,40770,33467,24800,42130,31703,24400,23570,37064,35577,0
101,100000,44804,17992,33988,40394,33938,24747,39852,33055,25470,23980,36531,35701,0
102,101000,46485,18101,32111,39931,34326,24841,37590,33788,27273,24488,36080,35622,0
103,102000,47738,18763,30043,39441,34588,25067,35580,33821,29628,25038,35759,35351,0
104,103000,48436,19926,27977,38990,34689,25394,34024,33154,32296,25569,35597,34922,0
105,104000,48516,21472,26117,38615,34616,25801,33065,31856,35023,26034,35612,34370,0
106,105000,47975,23234,24654,38346,34385,26244,32797,30054,37538,26387,35804,33750,0
107,106000,46859,25045,23733,38216,34034,26660,33247,27935,39583,26595,36143,33134,0
108,107000,45276,26735,23438,38237,33592,27014,34365,25700,40971,26638,36599,32576,0
109,108000,43398,28128,23793,38403,33089,27286,36044,23559,41576,26508,37138,32124,0
110,109000,41404,29091,24762,38682,32596,27447,38113,21735,41330,26228,37693,31827,0
111,110000,39480,29533,26259,39047,32162,27480,40372,20399,40263,25825,38213,31709,0
112,111000,37818,29417,28126,39486,31804,27382,42618,19669,38477,25325,38657,31786,0
113,112000,36582,28756,30176,39947,31556,27171,44619,19626,36144,24782,38978,32050,0
114,113000,35887,27603,32225,40373,31449,26871,46177,20275,33495,24257,39145,32467,0
115,114000,35798,26074,34076,40743,31496,26490,47153,21553,30772,23790,39140,33010,0
116,115000,36323,24327,35538,41027,31695,26060,47445,23344,28242,23428,38957,33630,0
117,116000,37420,22523,36471,41186,32019,25640,47015,25465,26171,23210,38622,34254,0
118,117000,38988,20829,36786,41196,32451,25266,45906,27717,24751,23157,38164,34825,0
119,118000,40865,19419,36451,41052,32966,24965,44221,29883,24123,23282,37618,35290,0
120,119000,42867,18436,35497,40775,33490,24776,42130,31734,24361,23569,37049,35596,0
121,120000,44808,17979,33999,40390,33965,24727,39841,33090,25440,23984,36513,35716,0
122,121000,46493,18087,32118,39918,34355,24828,37569,33823,27255,24498,36062,35632,0
123,122000,47749,18751,30045,39422,34615,25061,35552,33853,29623,25052,35742,35354,0
124,123000,48450,19916,27974,38967,34712,25396,33991,33181,32304,25585,35583,34919,0
125,124000,48531,21464,26110,38589,34633,25810,33030,31873,35044,26051,35602,34361,0
126,125000,47989,23230,24643,38321,34394,26260,32763,30062,37569,26404,35799,33736,0
127,126000,46871,25047,23719,38193,34035,26681,33218,27932,39622,26609,36144,33116,0
128,127000,45285,26739,23423,38220,33583,27038,34345,25685,41014,26648,36606,32556,0
129,128000,43403,28137,23777,38393,33071,27310,36033,23535,41618,26514,37149,32104,0
130,129000,41405,29103,24748,38679,32572,27469,38113,21704,41368,26229,37708,31809,0
131,130000,39475,29546,26249,39053,32133,27498,40384,20364,40293,25820,38231,31694,0
132,131000,37809,29431,28119,39500,31774,27394,42639,19633,38495,25315,38676,31777,0
133,132000,36569,28769,30173,39968,31527,27176,44648,19593,36149,24768,38995,32047,0
134,133000,35872,27614,32228,40399,31423,26869,46212,20248,33486,24240,39160,32470,0
135,134000,35782,26082,34083,40771,31477,26480,47190,21535,30750,23771,39150,33019,0
136,135000,36308,24331,35550,41055,31685,26044,47480,23336,28210,23410,38962,33645,0
137,136000,37407,22522,36485,41211,32017,25619,47044,25469,26131,23194,38622,34273,0
138,137000,38979,20824,36801,41216,32459,25241,45927,27731,24708,23146,38158,34846,0
139,138000,40860,19411,36467,41065,32982,24939,44232,29907,24081,23276,37606,35310,0
140,139000,42866,18425,35511,40780,33513,24752,42131,31765,24324,23567,37033,35614,0
141,140000,44812,17966,34011,40386,33993,24707,39830,33125,25411,23988,36496,35731,0
142,141000,46501,18074,32125,39906,34384,24814,37548,33858,27237,24507,36043,35642,0
143,142000,47761,18738,30047,39404,34643,25055,35523,33885,29618,25065,35725,35358,0
144,143000,48464,19906,27972,38944,34736,25397,33957,33207,32312,25601,35569,34916,0
145,144000,48545,21457,26103,38564,34650,25819,32994,31891,35064,26069,35593,34352,0
146,145000,48003,23227,24632,38296,34403,26276,32729,30069,37601,26421,35795,33722,0
147,146000,46883,25048,23705,38171,34035,26702,33189,27928,39660,26624,36145,33098,0
148,147000,45294,26745,23408,38202,33574,27061,34324,25671,41056,26659,36613,32536,0
149,148000,43408,28145,23762,38382,33054,27334,36022,23512,41660,26520,37161,32084,0
150,149000,41405,29115,24734,38677,32548,27492,38113,21674,41405,26229,37724,31791,0
151,150000,39471,29560,26237,39059,32105,27517,40395,20329,40322,25816,38249,31680,0
152,151000,37801,29444,28112,39514,31744,27407,42661,19598,38512,25305,38694,31767,0
153,152000,36557,28782,30172,39988,31498,27182,44678,19560,36153,24754,39013,32043,0
154,153000,35858,27625,32231,40424,31398,26867,46247,20221,33477,24222,39174,32473,0
155,154000,35767,26089,34091,40799,31459,26470,47227,21517,30728,23753,39161,33029,0
156,155000,36293,24334,35562,41083,31674,26027,47515,23328,28178,23392,38967,33660,0
157,156000,37393,22522,36500,41236,32016,25597,47074,25472,26092,23179,38621,34291,0
158,157000,38969,20819,36817,41236,32467,25217,45949,27745,24665,23134,38152,34866,0
159,158000,40855,19402,36482,41078,32998,24914,44244,29930,24038,23269,37595,35331,0
160,159000,42865,18413,35525,40784,33536,24729,42131,31795,24286,23566,37018,35633,0
161,160000,44816,17953,34022,40382,34020,24688,39820,33159,25382,23992,36478,35746,0
162,161000,46509,18061,32132,39895,34412,24801,37528,33893,27219,24516,36025,35651,0
163,162000,47773,18726,30050,39385,34670,25049,35494,33917,29613,25078,35708,35361,0
164,163000,48478,19896,27969,38921,34759,25399,33923,33233,32321,25617,35555,34913,0
165,164000,48560,21451,26096,38539,34667,25828,32958,31909,35085,26086,35583,34343,0
166,165000,48017,23224,24621,38270,34412,26291,32695,30077,37632,26438,35790,33708,0
167,166000,46895,25048,23691,38149,34035,26722,33160,27925,39699,26638,36146,33080,0
168,167000,45303,26750,23393,38185,33565,27084,34302,25657,41098,26670,36619,32516,0
169,168000,43413,28154,23747,38372,33038,27358,36011,23489,41701,26527,37172,32065,0
170,169000,41405,29126,24721,38674,32525,27514,38113,21644,41442,26230,37739,31773,0
171,170000,39467,29573,26227,39065,32077,27535,40406,20295,40350,25811,38267,31666,0
172,171000,37792,29458,28105,39528,31714,27420,42682,19563,38530,25295,38713,31758,0
173,172000,36544,28795,30169,40009,31469,27187,44707,19528,36158,24740,39030,32040,0
174,173000,35843,27635,32233,40450,31373,26864,46282,20194,33469,24205,39189,32476,0
175,174000,35752,26097,34098,40827,31440,26460,47263,21499,30707,23735,39171,33038,0
176,175000,36278,24338,35573,41111,31664,26010,47549,23320,28146,23375,38973,33674,0
177,176000,37380,22521,36514,41261,32015,25575,47104,25475,26053,23163,38620,34309,0
178,177000,38960,20814,36833,41256,32474,25192,45971,27758,24622,23122,38145,34886,0
179,178000,40849,19393,36498,41091,33014,24889,44256,29953,23997,23262,37584,35351,0
180,179000,42864,18402,35539,40789,33558,24706,42132,31825,24249,23564,37003,35651,0
181,180000,44819,17940,34032,40378,34046,24669,39810,33193,25353,23996,36461,35760,0
182,181000,46517,18047,32139,39883,34440,24788,37508,33927,27201,24525,36008,35661,0
183,182000,47784,18714,30052,39367,34697,25043,35467,33949,29608,25091,35692,35365,0
184,183000,48491,19886,27967,38898,34782,25400,33890,33259,32328,25633,35541,34911,0
185,184000,48574,21443,26089,38513,34684,25837,32924,31926,35105,26103,35573,34335,0
186,185000,48031,23221,24611,38246,34420,26306,32662,30084,37662,26454,35785,33694,0
187,186000,46907,25049,23677,38127,34035,26742,33132,27922,39736,26652,36147,33063,0
188,187000,45312,26754,23378,38169,33556,27108,34281,25643,41140,26681,36626,32497,0
189,188000,43418,28163,23732,38361,33021,27382,36000,23466,41742,26533,37184,32045,0
190,189000,41406,29137,24707,38672,32502,27535,38112,21614,41479,26231,37754,31756,0
191,190000,39462,29587,26216,39071,32050,27553,40417,20260,40380,25806,38284,31651,0
192,191000,37784,29472,28098,39542,31684,27432,42703,19528,38548,25285,38731,31749,0
193,192000,36532,28808,30168,40029,31441,27192,44736,19495,36164,24726,39047,32037,0
194,193000,35829,27646,32236,40475,31349,26862,46316,20167,33461,24189,39203,32479,0
195,194000,35737,26104,34105,40855,31422,26451,47299,21480,30686,23717,39181,33047,0
196,195000,36263,24341,35584,41138,31653,25994,47584,23312,28116,23357,38978,33688,0
197,196000,37367,22520,36529,41285,32013,25554,47134,25477,26015,23148,38620,34327,0
198,197000,38950,20810,36848,41275,32483,25167,45993,27772,24579,23111,38138,34907,0
199,198000,40844,19384,36514,41103,33029,24864,44268,29975,23955,23255,37574,35371,0
200,199000,42863,18391,35553,40793,33580,24683,42133,31854,24212,23563,36989,35669,0
201,200000,44823,17928,34043,40374,34073,24650,39799,33226,25323,24000,36444,35775,0
202,201000,46526,18033,32146,39871,34468,24775,37488,33962,27183,24534,35990,35670,0
203,202000,47795,18701,30054,39348,34724,25037,35439,33981,29602,25104,35675,35368,0
204,203000,48504,19876,27964,38875,34804,25402,33857,33286,32335,25649,35527,34908,0
205,204000,48589,21436,26082,38489,34700,25846,32889,31944,35125,26120,35563,34326,0
206,205000,48045,23218,24600,38221,34429,26321,32629,30092,37692,26470,35781,33681,0
207,206000,46919,25050,23664,38105,34035,26762,33103,27920,39773,26666,36147,33046,0
208,207000,45322,26759,23362,38152,33547,27130,34260,25630,41181,26691,36632,32478,0
209,208000,43422,28171,23717,38351,33004,27405,35988,23444,41783,26539,37195,32026,0
210,209000,41407,29148,24694,38669,32479,27557,38112,21585,41515,26231,37769,31738,0
211,210000,39458,29600,26205,39076,32022,27571,40427,20226,40409,25802,38301,31637,0
212,211000,37775,29485,28092,39555,31655,27444,42723,19493,38566,25275,38749,31740,0
213,212000,36520,28820,30165,40050,31413,27198,44764,19463,36169,24713,39064,32034,0
214,213000,35815,27657,32238,40500,31325,26859,46349,20140,33454,24172,39218,32482,0
215,214000,35721,26111,34113,40882,31404,26441,47335,21462,30667,23699,39192,33056,0
216,215000,36248,24345,35596,41165,31643,25978,47618,23303,28085,23340,38983,33702,0
217,216000,37355,22520,36543,41310,32012,25533,47163,25479,25977,23133,38620,34344,0
218,217000,38940,20805,36863,41294,32491,25143,46014,27785,24538,23099,38133,34926,0
219,218000,40839,19376,36529,41116,33045,24839,44280,29996,23915,23248,37563,35390,0
220,219000,42862,18380,35567,40797,33602,24660,42134,31883,24176,23561,36974,35687,0
221,220000,44827,17915,34054,40370,34099,24632,39790,33259,25295,24004,36427,35789,0
222,221000,46534,18020,32153,39860,34496,24762,37469,33995,27165,24543,35973,35679,0
223,222000,47806,18689,30057,39330,34750,25031,35412,34012,29596,25117,35659,35372,0
224,223000,48517,19866,27962,38853,34827,25404,33825,33311,32342,25664,35513,34906,0
225,224000,48604,21429,26075,38464,34717,25854,32854,31962,35144,26136,35554,34318,0
226,225000,48058,23214,24590,38197,34438,26336,32596,30101,37721,26486,35776,33667,0
227,226000,46931,25051,23651,38084,34035,26782,33075,27917,39810,26681,36148,33029,0
228,227000,45330,26764,23347,38135,33539,27153,34239,25618,41222,26702,36638,32459,0
