RTDS Simulation, 0,1999
13,12A,1D
1,IaBus1,,,KA,3.19043E-5,-0.923939,0,0,65535,1.0,1.0,P
2,IbBus1,,,KA,4.07947E-5,-1.77971,0,0,65535,1.0,1.0,P
3,IcBus1,,,KA,3.87484E-5,-0.894232,0,0,65535,1.0,1.0,P
4,IaBus2,,,KA,1.3599E-5,-0.485847,0,0,65535,1.0,1.0,P
5,IbBus2,,,KA,1.49427E-5,-0.368677,0,0,65535,1.0,1.0,P
6,IcBus2,,,KA,1.49168E-5,-0.60625,0,0,65535,1.0,1.0,P
7,IaBus3,,,KA,4.28864E-5,-1.45112,0,0,65535,1.0,1.0,P
8,IbBus3,,,KA,4.43997E-5,-1.29926,0,0,65535,1.0,1.0,P
9,IcBus3,,,KA,4.40581E-5,-1.59457,0,0,65535,1.0,1.0,P
10,IaBus4,,,KA,3.94744E-5,-1.29335,0,0,65535,1.0,1.0,P
11,IbBus4,,,KA,4.13299E-5,-1.30216,0,0,65535,1.0,1.0,P
12,IcBus4,,,KA,3.9562E-5,-1.29625,0,0,65535,1.0,1.0,P
1,LGFLT,0,,0
50.0
1
1000.0,2000
02/03/2020,17:41:35.580000
02/03/2020,17:41:36.580000
ASCII
1
1,0,28959,43625,23078,30349,14220,56019,41553,4991,53141,26232,61359,8091,0
2,1000,28959,43625,23078,35709,11103,54261,48771,4508,46603,16544,63004,16035,0
3,2000,28959,43625,23078,41007,9319,51215,54518,6445,39057,8475,61569,25587,0
4,3000,28959,43625,23078,45802,9057,47096,58242,10621,31220,2776,57178,35868,0
5,4000,28959,43625,23078,49646,10334,42305,59580,16624,23866,0,50267,45864,0
6,5000,28959,43625,23077,52130,12966,37403,58400,23856,17727,425,41547,54549,0
7,6000,28959,43625,23077,52987,16751,32839,54812,31620,13397,4028,31837,61092,0
8,7000,28959,43625,23077,52128,21382,28994,49166,39164,11294,10458,22059,64884,0
9,8000,28959,43625,23077,49705,26296,26283,42026,45729,11628,19050,13229,65535,0
10,9000,28959,43625,23077,45939,31006,24991,34086,50680,14365,28973,6207,62973,0
11,10000,28959,43625,23077,41101,35131,25259,26110,53539,19246,39306,1645,57436,0
12,11000,28959,43625,23077,35734,38252,27019,18894,54020,25784,48995,0,49491,0
13,12000,28959,43625,23077,30438,40035,30064,13148,52082,33330,57062,1437,39940,0
14,13000,28959,43625,23077,25643,40290,34190,9423,47905,41169,62760,5832,29654,0
15,14000,28959,43625,23077,21800,39006,38989,8088,41900,48522,65535,12747,19656,0
16,15000,28959,43625,23077,19324,36367,43890,9269,34668,54660,65104,21470,10973,0
17,16000,28959,43625,23077,18470,32584,48449,12856,26906,58989,61502,31177,4432,0
18,17000,28959,43625,23077,19330,27960,52287,18503,19363,61090,55070,40952,646,0
19,18000,28959,43625,23077,21762,23046,54990,25644,12798,60756,46474,49781,0,0
20,19000,28959,43625,23077,25530,18336,56280,33582,7847,58019,36553,56802,2561,0
21,20000,28959,43625,23078,30348,14222,56018,41555,4991,53139,26230,61359,8094,0
22,21000,28959,43625,23078,35709,11104,54260,48771,4510,46602,16544,63003,16037,0
23,22000,28959,43625,23078,41007,9320,51214,54518,6446,39056,8475,61567,25589,0
24,23000,28959,43625,23078,45799,9059,47097,58242,10623,31218,2777,57175,35870,0
25,24000,28959,43625,23078,49645,10335,42305,59578,16626,23866,2,50264,45864,0
26,25000,28959,43625,23077,52127,12968,37404,58398,23858,17727,428,41544,54549,0
27,26000,28959,43625,23077,52984,16752,32841,54811,31622,13397,4030,31835,61091,0
28,27000,28959,43625,23077,52128,21381,28995,49163,39165,11295,10461,22057,64883,0
29,28000,28959,43625,23077,49704,26296,26284,42023,45731,11629,19054,13228,65532,0
30,29000,28959,43625,23077,45937,31006,24994,34085,50681,14367,28976,6207,62970,0
31,30000,28959,43625,23077,41102,35129,25260,26108,53539,19248,39308,1646,57434,0
32,31000,28959,43625,23077,35734,38250,27021,18892,54020,25787,48996,1,49489,0
33,32000,28959,43625,23077,30438,40034,30066,13148,52081,33332,57062,1439,39937,0
34,33000,28959,43625,23077,25646,40289,34190,9424,47903,41171,62759,5834,29653,0
35,34000,28959,43625,23077,21802,39005,38989,8088,41898,48523,65533,12750,19655,0
36,35000,28959,43625,23077,19326,36366,43890,9271,34667,54661,65102,21472,10972,0
37,36000,28959,43625,23077,18472,32583,48448,12858,26904,58989,61499,31179,4433,0
38,37000,28959,43625,23077,19332,27960,52286,18505,19362,61090,55067,40953,647,0
39,38000,28959,43625,23077,21763,23047,54988,25646,12797,60754,46472,49781,1,0
40,39000,28959,43625,23077,25533,18335,56276,33584,7847,58017,36549,56803,2564,0
41,40000,28959,43625,23078,30349,14223,56016,41556,4992,53138,26229,61357,8096,0
42,41000,28959,43625,23078,35707,11107,54259,48773,4510,46599,16542,63001,16040,0
43,42000,28959,43625,23078,41005,9322,51214,54518,6447,39054,8475,61565,25591,0
44,43000,28959,43625,23078,45800,9060,47096,58242,10624,31217,2778,57173,35871,0
45,44000,28959,43625,23078,49642,10337,42305,59578,16628,23864,2,50262,45866,0
46,45000,28959,43625,23077,52126,12968,37404,58398,23859,17726,429,41542,54550,0
47,46000,28959,43625,23077,52984,16752,32841,54809,31624,13397,4032,31833,61091,0
48,47000,28959,43625,23077,52125,21382,28997,49162,39166,11295,10463,22056,64882,0
49,48000,28959,43625,23077,49703,26295,26286,42022,45731,11630,19055,13228,65531,0
50,49000,28959,43625,23077,45938,31004,24994,34083,50681,14368,28977,6207,62968,0
51,50000,28959,43625,23077,41100,35128,25262,26107,53538,19250,39309,1647,57431,0
52,51000,28959,43625,23077,35735,38249,27022,18892,54018,25788,48996,2,49486,0
53,52000,28959,43625,23077,30440,40031,30066,13147,52080,33334,57062,1441,39935,0
54,53000,28959,43625,23077,25646,40287,34191,9424,47902,41172,62759,5836,29651,0
55,54000,28959,43625,23077,21804,39004,38989,8089,41896,48524,65532,12752,19654,0
56,55000,28959,43625,23077,19328,36365,43889,9271,34665,54661,65101,21474,10972,0
57,56000,28959,43625,23077,18474,32583,48447,12859,26903,58989,61498,31181,4433,0
58,57000,28959,43625,23077,19334,27960,52284,18507,19361,61089,55065,40954,648,0
59,58000,28959,43625,23077,21764,23047,54987,25647,12797,60754,46470,49782,3,0
60,59000,28959,43625,23077,25526,18340,56279,33584,7848,58016,36552,56801,2564,0
61,60000,28959,43625,23078,30350,14224,56015,41559,4991,53135,26225,61358,8099,0
62,61000,28959,43625,23078,35708,11108,54258,48772,4512,46599,16543,62999,16042,0
63,62000,28959,43625,23078,41006,9323,51213,54518,6449,39053,8475,61563,25593,0
64,63000,28959,43625,23078,45796,9063,47096,58242,10626,31215,2778,57171,35873,0
65,64000,28959,43625,23078,49641,10337,42305,59576,16630,23864,5,50259,45866,0
66,65000,28959,43625,23077,52123,12970,37405,58395,23862,17727,433,41539,54549,0
67,66000,28959,43625,23077,52980,16754,32844,54808,31625,13397,4035,31831,61091,0
68,67000,28959,43625,23077,52125,21381,28997,49159,39168,11296,10466,22055,64880,0
69,68000,28959,43625,23077,49702,26294,26288,42019,45732,11631,19058,13227,65529,0
70,69000,28959,43625,23077,45935,31004,24997,34081,50681,14370,28980,6207,62966,0
71,70000,28959,43625,23077,41102,35126,25263,26105,53538,19251,39310,1648,57429,0
72,71000,28959,43625,23077,35735,38247,27023,18890,54018,25790,48998,4,49484,0
73,72000,28959,43625,23077,30439,40031,30068,13147,52078,33335,57062,1443,39933,0
74,73000,28959,43625,23077,25649,40285,34190,9424,47900,41174,62757,5839,29649,0
75,74000,28959,43625,23077,21806,39002,38988,8090,41895,48526,65531,12754,19653,0
76,75000,28959,43625,23077,19330,36365,43888,9273,34663,54662,65098,21477,10972,0
77,76000,28959,43625,23077,18476,32582,48446,12861,26901,58989,61494,31183,4434,0
78,77000,28959,43625,23077,19335,27960,52283,18509,19360,61089,55063,40955,649,0
79,78000,28959,43625,23077,21765,23048,54985,25650,12796,60752,46467,49783,5,0
80,79000,28959,43625,23077,25532,18339,56275,33587,7847,58014,36546,56802,2568,0
81,80000,28959,43625,23078,30349,14225,56014,41559,4992,53134,26226,61356,8101,0
82,81000,28959,43625,23078,35707,11109,54256,48774,4512,46596,16541,62998,16044,0
83,82000,28959,43625,23078,41004,9325,51212,54519,6450,39050,8474,61561,25596,0
84,83000,28959,43625,23078,45795,9064,47096,58241,10627,31214,2780,57168,35875,0
85,84000,28959,43625,23078,49640,10339,42305,59576,16632,23863,6,50257,45868,0
86,85000,28959,43625,23077,52121,12971,37406,58395,23863,17726,434,41537,54550,0
87,86000,28959,43625,23077,52979,16754,32844,54806,31627,13397,4038,31829,61090,0
88,87000,28959,43625,23077,52123,21381,28999,49158,39169,11296,10469,22053,64879,0
89,88000,28959,43625,23077,49700,26294,26289,42018,45733,11632,19061,13226,65527,0
90,89000,28959,43625,23077,45935,31003,24998,34079,50681,14371,28982,6207,62964,0
91,90000,28959,43625,23077,41101,35125,25265,26104,53538,19253,39312,1648,57426,0
92,91000,28959,43625,23077,35735,38246,27024,18890,54017,25792,48999,5,49481,0
93,92000,28959,43625,23077,30441,40028,30068,13146,52077,33337,57062,1445,39931,0
94,93000,28959,43625,23077,25649,40284,34191,9424,47899,41175,62757,5841,29648,0
95,94000,28959,43625,23077,21808,39001,38988,8091,41893,48526,65529,12757,19652,0
96,95000,28959,43625,23077,19331,36364,43888,9274,34662,54662,65096,21479,10971,0
97,96000,28959,43625,23077,18478,32582,48445,12862,26900,58989,61493,31184,4434,0
98,97000,28959,43625,23077,19337,27960,52281,18511,19358,61088,55060,40957,651,0
99,98000,28959,43625,23077,21766,23048,54983,25651,12795,60751,46465,49783,7,0
100,99000,28959,43625,23077,25535,18338,56272,33589,7846,58013,36543,56803,2571,0
101,100000,28959,43625,23078,30349,14227,56012,41560,4992,53133,26224,61355,8103,0
102,101000,28959,43625,23078,35706,11111,54255,48775,4512,46594,16540,62997,16047,0
103,102000,28959,43625,23078,41003,9327,51211,54520,6451,39049,8474,61559,25598,0
104,103000,28959,43625,23078,45795,9064,47095,58242,10629,31213,2780,57166,35877,0
105,104000,28959,43625,23078,49637,10340,42306,59576,16633,23861,6,50255,45869,0
106,105000,28959,43625,23077,52121,12971,37406,58394,23864,17725,435,41536,54551,0
107,106000,28959,43625,23077,52978,16754,32845,54804,31628,13397,4039,31827,61090,0
108,107000,28959,43625,23077,52120,21381,29001,49157,39170,11296,10470,22053,64879,0
109,108000,28959,43625,23077,49699,26293,26291,42017,45733,11633,19062,13226,65526,0
110,109000,28959,43625,23077,45939,31000,24998,34078,50681,14372,28982,6209,62963,0
111,110000,28959,43625,23077,41100,35124,25267,26102,53537,19255,39314,1649,57424,0
112,111000,28959,43625,23077,35735,38244,27026,18890,54016,25793,48999,7,49480,0
113,112000,28959,43625,23077,30443,40027,30068,13146,52076,33338,57062,1447,39929,0
114,113000,28959,43625,23077,25651,40282,34191,9424,47897,41176,62756,5843,29646,0
115,114000,28959,43625,23077,21808,39000,38988,8093,41891,48527,65527,12759,19651,0
116,115000,28959,43625,23077,19334,36362,43886,9276,34660,54663,65094,21481,10971,0
117,116000,28959,43625,23077,18480,32581,48443,12863,26898,58989,61490,31186,4435,0
118,117000,28959,43625,23077,19337,27961,52280,18513,19357,61087,55057,40958,652,0
119,118000,28959,43625,23077,21768,23049,54982,25654,12794,60750,46462,49784,9,0
120,119000,28959,43625,23077,25532,18341,56272,33589,7847,58012,36544,56801,2571,0
121,120000,28959,43625,23078,30350,14228,56010,41562,4992,53131,26222,61355,8106,0
122,121000,28959,43625,23078,35705,11113,54254,48776,4514,46593,16540,62995,16049,0
123,122000,28959,43625,23078,41003,9328,51210,54519,6453,39048,8475,61557,25599,0
124,123000,28959,43625,23078,45793,9067,47095,58241,10630,31211,2780,57164,35878,0
125,124000,28959,43625,23078,49636,10342,42306,59575,16634,23860,8,50253,45870,0
126,125000,28959,43625,23077,52119,12972,37407,58392,23866,17725,438,41533,54550,0
127,126000,28959,43625,23077,52975,16755,32847,54803,31629,13397,4042,31826,61089,0
128,127000,28959,43625,23077,52119,21381,29002,49155,39171,11297,10473,22051,64877,0
129,128000,28959,43625,23077,49699,26292,26292,42015,45734,11634,19064,13225,65524,0
130,129000,28959,43625,23077,45937,30999,25000,34077,50681,14374,28985,6208,62960,0
131,130000,28959,43625,23077,41101,35123,25268,26101,53537,19256,39315,1650,57422,0
132,131000,28959,43625,23077,35736,38243,27027,18888,54015,25795,49000,8,49477,0
133,132000,28959,43625,23077,30443,40026,30070,13146,52074,33340,57062,1449,39927,0
134,133000,28959,43625,23077,25653,40281,34191,9424,47896,41178,62755,5845,29644,0
135,134000,28959,43625,23077,21810,38999,38988,8093,41889,48528,65526,12762,19650,0
136,135000,28959,43625,23077,19336,36361,43886,9277,34658,54663,65092,21483,10971,0
137,136000,28959,43625,23077,18481,32581,48442,12865,26897,58989,61488,31188,4435,0
138,137000,28959,43625,23077,19339,27961,52279,18514,19356,61087,55055,40959,653,0
139,138000,28959,43625,23077,21769,23049,54980,25655,12794,60749,46460,49785,10,0
140,139000,28959,43625,23077,25535,18341,56269,33592,7846,58010,36540,56802,2574,0
141,140000,28959,43625,23078,30348,14230,56010,41563,4993,53129,26221,61353,8108,0
142,141000,28959,43625,23078,35706,11114,54253,48776,4514,46591,16539,62994,16051,0
143,142000,28959,43625,23078,41002,9329,51209,54520,6454,39046,8474,61556,25602,0
144,143000,28959,43625,23078,45791,9069,47095,58241,10632,31210,2782,57161,35879,0
145,144000,28959,43625,23078,49634,10343,42306,59573,16637,23860,10,50250,45871,0
146,145000,28959,43625,23077,52116,12973,37408,58391,23868,17724,440,41531,54551,0
147,146000,28959,43625,23077,52973,16755,32848,54801,31631,13397,4045,31824,61089,0
148,147000,28959,43625,23077,52118,21381,29004,49153,39172,11298,10476,22050,64876,0
149,148000,28959,43625,23077,49697,26292,26294,42012,45735,11635,19068,13224,65522,0
150,149000,28959,43625,23077,45933,31000,25003,34075,50682,14375,28988,6208,62957,0
151,150000,28959,43625,23077,41101,35121,25269,26100,53537,19258,39317,1651,57419,0
152,151000,28959,43625,23077,35736,38241,27028,18887,54015,25797,49001,9,49474,0
153,152000,28959,43625,23077,30444,40024,30070,13145,52073,33342,57062,1450,39925,0
154,153000,28959,43625,23077,25653,40280,34192,9425,47894,41179,62755,5847,29643,0
155,154000,28959,43625,23077,21812,38997,38988,8093,41888,48530,65525,12763,19649,0
156,155000,28959,43625,23077,19337,36361,43886,9278,34657,54664,65091,21485,10970,0
157,156000,28959,43625,23077,18483,32580,48441,12867,26895,58989,61486,31190,4436,0
158,157000,28959,43625,23077,19342,27960,52277,18516,19355,61086,55053,40960,654,0
159,158000,28959,43625,23077,21770,23050,54979,25657,12793,60748,46458,49785,12,0
160,159000,28959,43625,23077,25530,18345,56270,33592,7846,58009,36541,56800,2575,0
161,160000,28959,43625,23078,30351,14230,56007,41565,4993,53127,26218,61353,8111,0
162,161000,28959,43625,23078,35706,11116,54252,48777,4516,46590,16539,62992,16053,0
163,162000,28959,43625,23078,41001,9331,51209,54520,6455,39044,8475,61554,25604,0
164,163000,28959,43625,23078,45790,9070,47094,58241,10633,31208,2782,57160,35882,0
165,164000,28959,43625,23078,49633,10344,42306,59572,16638,23859,12,50248,45872,0
166,165000,28959,43625,23077,52114,12974,37409,58389,23870,17724,443,41528,54551,0
167,166000,28959,43625,23077,52971,16756,32849,54800,31632,13397,4046,31822,61089,0
168,167000,28959,43625,23077,52117,21381,29005,49150,39174,11299,10479,22048,64875,0
169,168000,28959,43625,23077,49696,26292,26296,42011,45736,11636,19070,13224,65520,0
170,169000,28959,43625,23077,45931,30999,25005,34073,50682,14377,28990,6208,62955,0
171,170000,28959,43625,23077,41101,35120,25270,26099,53536,19260,39318,1652,57417,0
172,171000,28959,43625,23077,35737,38239,27029,18886,54014,25799,49002,11,49472,0
173,172000,28959,43625,23077,30444,40022,30072,13145,52072,33343,57062,1452,39923,0
174,173000,28959,43625,23077,25655,40278,34192,9424,47893,41180,62755,5850,29641,0
175,174000,28959,43625,23077,21814,38995,38987,8093,41886,48531,65524,12766,19648,0
176,175000,28959,43625,23077,19338,36360,43885,9279,34655,54664,65089,21487,10970,0
177,176000,28959,43625,23077,18484,32580,48440,12868,26894,58989,61483,31191,4436,0
178,177000,28959,43625,23077,19343,27960,52276,18517,19354,61086,55050,40962,655,0
179,178000,28959,43625,23077,21771,23051,54977,25658,12792,60747,46455,49786,13,0
180,179000,28959,43625,23077,25531,18346,56269,33594,7846,58008,36539,56800,2577,0
181,180000,28959,43625,23078,30351,14231,56006,41567,4993,53126,26217,61353,8113,0
182,181000,28959,43625,23078,35705,11117,54250,48777,4516,46588,16538,62991,16056,0
183,182000,28959,43625,23078,41000,9333,51208,54520,6456,39043,8474,61552,25606,0
184,183000,28959,43625,23078,45788,9072,47094,58241,10635,31207,2783,57157,35883,0
185,184000,28959,43625,23078,49632,10345,42306,59572,16640,23858,13,50246,45873,0
186,185000,28959,43625,23077,52112,12975,37410,58388,23871,17723,444,41526,54551,0
187,186000,28959,43625,23077,52970,16757,32850,54799,31634,13397,4048,31820,61088,0
188,187000,28959,43625,23077,52116,21381,29006,49149,39175,11299,10481,22047,64874,0
189,188000,28959,43625,23077,49694,26291,26297,42009,45736,11637,19072,13223,65519,0
190,189000,28959,43625,23077,45931,30998,25007,34071,50682,14378,28992,6208,62953,0
191,190000,28959,43625,23077,41100,35118,25272,26097,53536,19261,39320,1653,57415,0
192,191000,28959,43625,23077,35737,38238,27030,18885,54013,25800,49003,12,49470,0
193,192000,28959,43625,23077,30445,40021,30072,13145,52071,33345,57063,1454,39921,0
194,193000,28959,43625,23077,25656,40276,34193,9425,47891,41182,62754,5852,29639,0
195,194000,28959,43625,23077,21816,38994,38987,8094,41885,48531,65523,12768,19647,0
196,195000,28959,43625,23077,19340,36359,43884,9280,34653,54665,65087,21489,10970,0
197,196000,28959,43625,23077,18486,32580,48439,12870,26892,58989,61481,31193,4436,0
198,197000,28959,43625,23077,19345,27960,52274,18519,19353,61086,55048,40963,656,0
199,198000,28959,43625,23077,21772,23051,54976,25660,12792,60746,46453,49786,15,0
200,199000,28959,43625,23077,25536,18344,56265,33597,7845,58006,36534,56801,2581,0
201,200000,28959,43625,23078,30350,14233,56005,41567,4994,53125,26216,61351,8115,0
202,201000,28959,43625,23078,35705,11119,54249,48779,4517,46586,16536,62990,16058,0
203,202000,28959,43625,23078,40999,9334,51207,54521,6457,39041,8474,61550,25608,0
204,203000,28959,43625,23078,45787,9073,47094,58241,10636,31206,2783,57155,35885,0
205,204000,28959,43625,23078,49630,10347,42306,59572,16642,23857,14,50244,45874,0
206,205000,28959,43625,23077,52111,12976,37410,58388,23873,17722,445,41525,54552,0
207,206000,28959,43625,23077,52968,16757,32851,54797,31635,13397,4051,31818,61088,0
208,207000,28959,43625,23077,52114,21381,29008,49148,39176,11299,10483,22046,64873,0
209,208000,28959,43625,23077,49693,26291,26299,42007,45737,11638,19074,13222,65517,0
210,209000,28959,43625,23077,45931,30997,25008,34070,50682,14379,28994,6208,62951,0
211,210000,28959,43625,23077,41100,35117,25274,26096,53536,19263,39321,1653,57412,0
212,211000,28959,43625,23077,35737,38237,27031,18884,54012,25802,49004,14,49467,0
213,212000,28959,43625,23077,30447,40019,30073,13144,52070,33347,57063,1456,39918,0
214,213000,28959,43625,23077,25657,40275,34193,9425,47890,41183,62753,5854,29638,0
215,214000,28959,43625,23077,21817,38993,38987,8095,41883,48532,65521,12770,19646,0
216,215000,28959,43625,23077,19342,36358,43884,9281,34652,54665,65085,21491,10969,0
217,216000,28959,43625,23077,18488,32579,48438,12871,26891,58989,61479,31195,4437,0
218,217000,28959,43625,23077,19346,27960,52273,18521,19352,61085,55046,40964,657,0
219,218000,28959,43625,23077,21774,23051,54974,25662,12791,60746,46451,49787,17,0
220,219000,28959,43625,23077,25532,18347,56266,33597,7846,58005,36535,56800,2581,0
221,220000,28959,43625,23078,30351,14234,56003,41569,4994,53123,26214,61351,8118,0
222,221000,28959,43625,23078,35705,11120,54248,48779,4518,46585,16536,62988,16060,0
223,222000,28959,43625,23078,40999,9336,51206,54521,6459,39040,8474,61548,25610,0
224,223000,28959,43625,23078,45786,9075,47093,58241,10638,31204,2784,57153,35887,0
225,224000,28959,43625,23078,49628,10348,42306,59570,16643,23856,15,50241,45875,0
226,225000,28959,43625,23077,52109,12977,37411,58386,23875,17722,448,41522,54552,0
227,226000,28959,43625,23077,52966,16758,32852,54796,31637,13397,4053,31817,61088,0
228,227000,28959,43625,23077,52113,21381,29009,49146,39177,11300,10485,22045,64872,0
229,228000,28959,43625,23077,49692,26290,26300,42006,45738,11639,19076,13222,65515,0
230,229000,28959,43625,23077,45929,30997,25010,34068,50683,14381,28996,6208,62949,0
231,230000,28959,43625,23077,41100,35116,25275,26095,53535,19264,39322,1654,57410,0
232,231000,28959,43625,23077,35738,38235,27033,18883,54012,25804,49005,15,49465,0
233,232000,28959,43625,23077,30446,40018,30074,13144,52068,33348,57063,1458,39916,0
