RTDS Simulation, 0,1999
4,3A,1D
1,IaLine,,,KA,1.49589E-4,-3.66569,0,0,65535,1.0,1.0,P
2,IbLine,,,KA,1.21193E-4,-4.17412,0,0,65535,1.0,1.0,P
3,IcLine,,,KA,1.31696E-4,-4.96902,0,0,65535,1.0,1.0,P
1,LG_FLT,0,,0
50.0
1
1000.0,2000
04/02/2020,03:31:44.019000
04/02/2020,03:31:45.019000
ASCII
1
1,0,26274,32482,37524,0
2,1000,26437,33008,36854,0
3,2000,26413,33673,36269,0
4,3000,26201,34415,35828,0
5,4000,25822,35158,35574,0
6,5000,25316,35831,35530,0
7,6000,24728,36369,35703,0
8,7000,24120,36716,36074,0
9,8000,23550,36842,36606,0
10,9000,23074,36731,37248,0
11,10000,22737,36398,37938,0
12,11000,22574,35873,38606,0
13,12000,22597,35209,39190,0
14,13000,22810,34468,39630,0
15,14000,23187,33726,39885,0
16,15000,23693,33053,39930,0
17,16000,24280,32516,39758,0
18,17000,24887,32167,39389,0
19,18000,25458,32041,38857,0
20,19000,25934,32150,38215,0
21,20000,26274,32482,37524,0
22,21000,26437,33008,36854,0
23,22000,26413,33673,36269,0
24,23000,26201,34415,35828,0
25,24000,25822,35158,35574,0
26,25000,25316,35831,35530,0
27,26000,24728,36369,35703,0
28,27000,24120,36716,36074,0
29,28000,23550,36842,36606,0
30,29000,23074,36731,37248,0
31,30000,22737,36398,37938,0
32,31000,22574,35873,38606,0
33,32000,22597,35209,39190,0
34,33000,22810,34468,39630,0
35,34000,23187,33726,39885,0
36,35000,23693,33053,39930,0
37,36000,24280,32516,39758,0
38,37000,24887,32167,39389,0
39,38000,25458,32041,38857,0
40,39000,25934,32150,38215,0
41,40000,26274,32482,37524,0
42,41000,26437,33008,36854,0
43,42000,26413,33673,36269,0
44,43000,26201,34415,35828,0
45,44000,25822,35158,35574,0
46,45000,25316,35831,35530,0
47,46000,24728,36369,35703,0
48,47000,24120,36716,36073,0
49,48000,23550,36841,36606,0
50,49000,23074,36731,37248,0
51,50000,22737,36398,37938,0
52,51000,22574,35873,38606,0
53,52000,22597,35209,39190,0
54,53000,22810,34468,39630,0
55,54000,23187,33726,39886,0
56,55000,23693,33053,39930,0
57,56000,24280,32515,39758,0
58,57000,24887,32167,39389,0
59,58000,25458,32041,38857,0
60,59000,25934,32150,38215,0
61,60000,26274,32482,37524,0
62,61000,26437,33008,36854,0
63,62000,26413,33673,36269,0
64,63000,26201,34415,35828,0
65,64000,25822,35158,35574,0
66,65000,25316,35831,35530,0
67,66000,24728,36369,35703,0
68,67000,24120,36716,36074,0
69,68000,23550,36842,36606,0
70,69000,23074,36731,37248,0
71,70000,22737,36398,37938,0
72,71000,22574,35873,38606,0
73,72000,22597,35209,39190,0
74,73000,22810,34468,39630,0
75,74000,23187,33726,39885,0
76,75000,23693,33053,39930,0
77,76000,24280,32516,39758,0
78,77000,24887,32167,39389,0
79,78000,25458,32041,38857,0
80,79000,25934,32150,38215,0
81,80000,26274,32482,37524,0
82,81000,26437,33008,36854,0
83,82000,26413,33673,36269,0
84,83000,26201,34415,35829,0
85,84000,25822,35158,35574,0
86,85000,25316,35831,35530,0
87,86000,24728,36369,35703,0
88,87000,24120,36716,36073,0
89,88000,23550,36842,36606,0
90,89000,23074,36731,37248,0
91,90000,22737,36398,37938,0
92,91000,22574,35873,38606,0
93,92000,22598,35209,39190,0
94,93000,22810,34468,39630,0
95,94000,23187,33726,39886,0
96,95000,23693,33053,39930,0
97,96000,24280,32515,39758,0
98,97000,24887,32167,39389,0
99,98000,25458,32041,38857,0
100,99000,25934,32150,38215,0
101,100000,26274,32482,37524,0
102,101000,26437,33008,36854,0
103,102000,26413,33673,36269,0
104,103000,26201,34415,35828,0
105,104000,25822,35158,35574,0
106,105000,25316,35831,35530,0
107,106000,24728,36369,35703,0
108,107000,24120,36716,36074,0
109,108000,23550,36842,36606,0
110,109000,23074,36731,37248,0
111,110000,22737,36398,37938,0
112,111000,22574,35873,38606,0
113,112000,22597,35209,39190,0
114,113000,22810,34468,39630,0
115,114000,23187,33726,39885,0
116,115000,23693,33053,39930,0
117,116000,24280,32516,39758,0
118,117000,24887,32167,39389,0
119,118000,25458,32041,38857,0
120,119000,25934,32150,38215,0
121,120000,26274,32482,37524,0
122,121000,26437,33008,36854,0
123,122000,26413,33673,36269,0
124,123000,26201,34415,35828,0
125,124000,25822,35158,35574,0
126,125000,25316,35831,35530,0
127,126000,24728,36369,35703,0
128,127000,24120,36716,36073,0
129,128000,23550,36841,36606,0
130,129000,23074,36731,37248,0
131,130000,22737,36398,37938,0
132,131000,22574,35873,38606,0
133,132000,22597,35209,39190,0
134,133000,22810,34468,39630,0
135,134000,23187,33726,39886,0
136,135000,23693,33053,39930,0
137,136000,24280,32515,39758,0
138,137000,24887,32167,39389,0
139,138000,25458,32041,38857,0
140,139000,25934,32150,38215,0
141,140000,26274,32482,37524,0
142,141000,26437,33008,36854,0
143,142000,26413,33673,36269,0
144,143000,26201,34415,35828,0
145,144000,25822,35158,35574,0
146,145000,25316,35831,35530,0
147,146000,24728,36369,35703,0
148,147000,24120,36716,36074,0
149,148000,23550,36842,36606,0
150,149000,23074,36731,37248,0
151,150000,22737,36398,37938,0
152,151000,22574,35873,38606,0
153,152000,22597,35209,39190,0
154,153000,22810,34468,39630,0
155,154000,23187,33726,39885,0
156,155000,23693,33053,39930,0
157,156000,24280,32516,39758,0
158,157000,24887,32167,39389,0
159,158000,25458,32041,38857,0
160,159000,25934,32150,38215,0
161,160000,26274,32482,37524,0
162,161000,26437,33008,36854,0
163,162000,26413,33673,36269,0
164,163000,26201,34415,35828,0
165,164000,25822,35158,35574,0
166,165000,25316,35831,35530,0
167,166000,24728,36369,35703,0
168,167000,24120,36716,36074,0
169,168000,23550,36842,36606,0
170,169000,23074,36731,37248,0
171,170000,22737,36398,37938,0
172,171000,22574,35873,38606,0
173,172000,22597,35209,39190,0
174,173000,22810,34468,39630,0
175,174000,23187,33726,39885,0
176,175000,23693,33053,39930,0
177,176000,24280,32516,39758,0
178,177000,24887,32167,39389,0
179,178000,25458,32041,38857,0
180,179000,25934,32150,38215,0
181,180000,26274,32482,37524,0
182,181000,26437,33008,36854,0
183,182000,26413,33673,36269,0
184,183000,26201,34415,35829,0
185,184000,25822,35158,35574,0
186,185000,25316,35831,35530,0
187,186000,24728,36369,35703,0
188,187000,24120,36716,36073,0
189,188000,23550,36842,36606,0
190,189000,23074,36731,37248,0
191,190000,22737,36398,37938,0
192,191000,22574,35873,38606,0
193,192000,22598,35209,39190,0
194,193000,22810,34468,39630,0
195,194000,23187,33726,39886,0
196,195000,23693,33053,39930,0
197,196000,24280,32515,39758,0
198,197000,24887,32167,39389,0
199,198000,25458,32041,38857,0
200,199000,25934,32150,38215,0
201,200000,26274,32482,37524,0
202,201000,26437,33008,36854,0
203,202000,26413,33673,36269,0
204,203000,26201,34415,35828,0
205,204000,25822,35158,35574,0
206,205000,25316,35831,35530,0
207,206000,24728,36369,35703,0
208,207000,24120,36716,36073,0
209,208000,23550,36841,36606,0
210,209000,23074,36731,37248,0
211,210000,22737,36398,37938,0
212,211000,22574,35873,38606,0
213,212000,22597,35209,39190,0
214,213000,22810,34468,39630,0
215,214000,23187,33726,39886,0
216,215000,23693,33053,39930,0
217,216000,24280,32515,39758,0
218,217000,24887,32167,39389,0
219,218000,25458,32041,38857,0
220,219000,25934,32150,38215,0
221,220000,26274,32482,37524,0
222,221000,26437,33008,36854,0
223,222000,26413,33673,36269,0
224,223000,26201,34415,35828,0
225,224000,25822,35158,35574,0
226,225000,25316,35831,35530,0
227,226000,24728,36369,35703,0
228,227000,24120,36716,36074,0
229,228000,23550,36842,36606,0
230,229000,23074,36731,37248,0
231,230000,22737,36398,37938,0
232,231000,22574,35873,38606,0
233,232000,22597,35209,39190,0
234,233000,22810,34468,39630,0
235,234000,23187,33726,39885,0
236,235000,23693,33053,39930,0
237,236000,24280,32516,39758,0
238,237000,24887,32167,39389,0
239,238000,25458,32041,38857,0
240,239000,25934,32150,38215,0
241,240000,26274,32482,37524,0
242,241000,26437,33008,36854,0
243,242000,26413,33673,36269,0
244,243000,26201,34415,35828,0
245,244000,25822,35158,35574,0
246,245000,25316,35831,35530,0
247,246000,24728,36369,35703,0
248,247000,24120,36716,36074,0
249,248000,23550,36842,36606,0
250,249000,23074,36731,37248,0
251,250000,22737,36398,37938,0
252,251000,22574,35873,38606,0
253,252000,22597,35209,39190,0
254,253000,22810,34468,39630,0
255,254000,23187,33726,39885,0
256,255000,23693,33053,39930,0
257,256000,24280,32516,39758,0
258,257000,24887,32167,39389,0
259,258000,25458,32041,38857,0
260,259000,25934,32150,38215,0
261,260000,26274,32482,37524,0
262,261000,26437,33008,36854,0
263,262000,26413,33673,36269,0
264,263000,26201,34415,35828,0
265,264000,25822,35158,35574,0
266,265000,25316,35831,35530,0
267,266000,24728,36369,35703,0
268,267000,24120,36716,36074,0
269,268000,23550,36842,36606,0
270,269000,23074,36731,37248,0
271,270000,22737,36398,37938,0
272,271000,22574,35873,38606,0
273,272000,22597,35209,39190,0
274,273000,22810,34468,39630,0
275,274000,23187,33726,39885,0
276,275000,23693,33053,39930,0
277,276000,24280,32516,39758,0
278,277000,24887,32167,39389,0
279,278000,25458,32041,38857,0
280,279000,25934,32150,38215,0
281,280000,26274,32482,37524,0
282,281000,26437,33008,36854,0
283,282000,26413,33673,36269,0
284,283000,26201,34415,35829,0
285,284000,25822,35158,35574,0
286,285000,25316,35831,35530,0
287,286000,24728,36369,35703,0
288,287000,24120,36716,36073,0
289,288000,23550,36841,36606,0
290,289000,23074,36731,37248,0
291,290000,22737,36398,37938,0
292,291000,22574,35873,38606,0
293,292000,22597,35209,39190,0
294,293000,22810,34468,39630,0
295,294000,23187,33726,39886,0
296,295000,23693,33053,39930,0
297,296000,24280,32515,39758,0
298,297000,24887,32167,39389,0
299,298000,25458,32041,38857,0
300,299000,25934,32150,38215,0
301,300000,26274,32482,37524,0
302,301000,26437,33008,36854,0
303,302000,26413,33673,36269,0
304,303000,26201,34415,35828,0
305,304000,25822,35158,35574,0
306,305000,25316,35831,35530,0
307,306000,24728,36369,35703,0
308,307000,24120,36716,36074,0
309,308000,23550,36842,36606,0
310,309000,23074,36731,37248,0
311,310000,22737,36398,37938,0
312,311000,22574,35873,38606,0
313,312000,22597,35209,39190,0
314,313000,22810,34468,39630,0
315,314000,23187,33726,39885,0
316,315000,23693,33053,39930,0
317,316000,24280,32516,39758,0
318,317000,24887,32167,39389,0
319,318000,25458,32041,38857,0
320,319000,25934,32150,38215,0
321,320000,26274,32482,37524,0
322,321000,26437,33008,36854,0
323,322000,26413,33673,36269,0
324,323000,26201,34415,35828,0
325,324000,25822,35158,35574,0
326,325000,25316,35831,35530,0
327,326000,24728,36369,35703,0
328,327000,24120,36716,36074,0
329,328000,23550,36842,36606,0
330,329000,23074,36731,37248,0
331,330000,22737,36398,37938,0
332,331000,22574,35873,38606,0
333,332000,22597,35209,39190,0
334,333000,22810,34468,39630,0
335,334000,23187,33726,39885,0
336,335000,23693,33053,39930,0
337,336000,24280,32516,39758,0
338,337000,24887,32167,39389,0
339,338000,25458,32041,38857,0
340,339000,25934,32150,38215,0
341,340000,26274,32482,37524,0
342,341000,26437,33008,36854,0
343,342000,26413,33673,36269,0
344,343000,26201,34415,35828,0
345,344000,25822,35158,35574,0
346,345000,25316,35831,35530,0
347,346000,24728,36369,35703,0
348,347000,24120,36716,36074,0
349,348000,23550,36842,36606,0
350,349000,23074,36731,37248,0
351,350000,22737,36398,37938,0
352,351000,22574,35873,38606,0
353,352000,22597,35209,39190,0
354,353000,22810,34468,39630,0
355,354000,23187,33726,39885,0
356,355000,23693,33053,39930,0
357,356000,24280,32516,39758,0
358,357000,24887,32167,39389,0
359,358000,25458,32041,38857,0
360,359000,25934,32150,38215,0
361,360000,26274,32482,37524,0
362,361000,26437,33008,36854,0
363,362000,26413,33673,36269,0
364,363000,26201,34415,35828,0
365,364000,25822,35158,35574,0
366,365000,25316,35831,35530,0
367,366000,24728,36369,35703,0
368,367000,24120,36716,36073,0
369,368000,23550,36841,36606,0
370,369000,23074,36731,37248,0
371,370000,22737,36398,37938,0
372,371000,22574,35873,38606,0
373,372000,22597,35209,39190,0
374,373000,22810,34468,39630,0
375,374000,23187,33726,39886,0
376,375000,23693,33053,39930,0
377,376000,24280,32515,39758,0
378,377000,24887,32167,39389,0
379,378000,25458,32041,38857,0
380,379000,25934,32150,38215,0
381,380000,26274,32482,37524,0
382,381000,26437,33008,36854,0
383,382000,26413,33673,36269,0
384,383000,26201,34415,35829,0
385,384000,25822,35158,35574,0
386,385000,25316,35831,35530,0
387,386000,24728,36369,35703,0
388,387000,24120,36716,36073,0
389,388000,23550,36842,36606,0
390,389000,23074,36731,37248,0
391,390000,22737,36398,37938,0
392,391000,22574,35873,38606,0
393,392000,22597,35209,39190,0
394,393000,22810,34468,39630,0
395,394000,23187,33726,39886,0
396,395000,23693,33053,39930,0
397,396000,24280,32515,39758,0
398,397000,24887,32167,39389,0
399,398000,25458,32041,38857,0
400,399000,25934,32150,38215,0
401,400000,26274,32482,37524,0
402,401000,26437,33008,36854,0
403,402000,26413,33673,36269,0
404,403000,26201,34415,35828,0
405,404000,25822,35158,35574,0
406,405000,25316,35831,35530,0
407,406000,24728,36369,35703,0
408,407000,24120,36716,36074,0
409,408000,23550,36842,36606,0
410,409000,23074,36731,37248,0
411,410000,22737,36398,37938,0
412,411000,22574,35873,38606,0
413,412000,22597,35209,39190,0
414,413000,22810,34468,39630,0
415,414000,23187,33726,39885,0
416,415000,23693,33053,39930,0
417,416000,24280,32516,39758,0
418,417000,24887,32167,39389,0
419,418000,25458,32041,38857,0
420,419000,25934,32150,38215,0
421,420000,26274,32482,37524,0
422,421000,26437,33008,36854,0
423,422000,26413,33673,36269,0
424,423000,26201,34415,35828,0
425,424000,25822,35158,35574,0
426,425000,25316,35831,35530,0
427,426000,24728,36369,35703,0
428,427000,24120,36716,36074,0
429,428000,23550,36842,36606,0
430,429000,23074,36731,37248,0
431,430000,22737,36398,37938,0
432,431000,22574,35873,38606,0
433,432000,22597,35209,39190,0
434,433000,22810,34468,39630,0
435,434000,23187,33726,39885,0
436,435000,23693,33053,39930,0
437,436000,24280,32516,39758,0
438,437000,24887,32167,39389,0
439,438000,25458,32041,38857,0
440,439000,25934,32150,38215,0
441,440000,26274,32482,37524,0
442,441000,26437,33008,36854,0
443,442000,26413,33673,36269,0
444,443000,26201,34415,35828,0
445,444000,25822,35158,35574,0
446,445000,25316,35831,35530,0
447,446000,24728,36369,35703,0
448,447000,24120,36716,36073,0
449,448000,23550,36841,36606,0
450,449000,23074,36731,37248,0
451,450000,22737,36398,37938,0
452,451000,22574,35873,38606,0
453,452000,22597,35209,39190,0
454,453000,22810,34468,39630,0
455,454000,23187,33726,39886,0
456,455000,23693,33053,39930,0
457,456000,24280,32515,39758,0
458,457000,24887,32167,39389,0
459,458000,25458,32041,38857,0
460,459000,25934,32150,38215,0
461,460000,26274,32482,37524,0
462,461000,26437,33008,36854,0
463,462000,26413,33673,36269,0
464,463000,26201,34415,35828,0
465,464000,25822,35158,35574,0
466,465000,25316,35831,35530,0
467,466000,24728,36369,35703,0
468,467000,24120,36716,36074,0
469,468000,23550,36842,36606,0
470,469000,23074,36731,37248,0
471,470000,22737,36398,37938,0
472,471000,22574,35873,38606,0
473,472000,22597,35209,39190,0
474,473000,22810,34468,39630,0
475,474000,23187,33726,39885,0
476,475000,23693,33053,39930,0
477,476000,24280,32516,39758,0
478,477000,24887,32167,39389,0
479,478000,25458,32041,38857,0
480,479000,25934,32150,38215,0
481,480000,26274,32482,37524,0
482,481000,26437,33008,36854,0
483,482000,26413,33673,36269,0
484,483000,26201,34415,35829,0
485,484000,25822,35158,35574,0
486,485000,25316,35831,35530,0
487,486000,24728,36369,35703,0
488,487000,24120,36716,36073,0
489,488000,23550,36842,36606,0
490,489000,23074,36731,37248,0
491,490000,22737,36398,37938,0
492,491000,22574,35873,38606,0
493,492000,22597,35209,39190,0
494,493000,22810,34468,39630,0
495,494000,23187,33726,39886,0
496,495000,23693,33053,39930,0
497,496000,24280,32515,39758,0
498,497000,24887,32167,39389,0
499,498000,25458,32041,38857,0
500,499000,25934,32150,38215,0
501,500000,26274,32482,37524,0
502,501000,26437,33008,36854,0
503,502000,26413,33673,36269,0
504,503000,26201,34415,35828,0
505,504000,25822,35158,35574,0
506,505000,25316,35831,35530,0
507,506000,24728,36369,35703,0
508,507000,24120,36716,36074,0
509,508000,23550,36842,36606,0
510,509000,23074,36731,37248,0
511,510000,22737,36398,37938,0
512,511000,22574,35873,38606,0
513,512000,22597,35209,39190,0
514,513000,22810,34468,39630,0
515,514000,23187,33726,39885,0
516,515000,23693,33053,39930,0
517,516000,24280,32516,39758,0
518,517000,24887,32167,39389,0
519,518000,25458,32041,38857,0
520,519000,25934,32150,38215,0
521,520000,26274,32482,37524,0
522,521000,26437,33008,36854,0
523,522000,26413,33673,36269,0
524,523000,26201,34415,35828,0
525,524000,25822,35158,35574,0
526,525000,25316,35831,35530,0
527,526000,24728,36369,35703,0
528,527000,24120,36716,36073,0
529,528000,23550,36841,36606,0
530,529000,23074,36731,37248,0
531,530000,22737,36398,37938,0
532,531000,22574,35873,38606,0
533,532000,22597,35209,39190,0
534,533000,22810,34468,39630,0
535,534000,23187,33726,39886,0
536,535000,23693,33053,39930,0
537,536000,24280,32515,39758,0
538,537000,24887,32167,39389,0
539,538000,25458,32041,38857,0
540,539000,25934,32150,38215,0
541,540000,26274,32482,37524,0
542,541000,26437,33008,36854,0
543,542000,26413,33673,36269,0
544,543000,26201,34415,35828,0
545,544000,25822,35158,35574,0
546,545000,25316,35831,35530,0
547,546000,24728,36369,35703,0
548,547000,24120,36716,36074,0
549,548000,23550,36842,36606,0
550,549000,23074,36731,37248,0
551,550000,22737,36398,37938,0
552,551000,22574,35873,38606,0
553,552000,22597,35209,39190,0
554,553000,22810,34468,39630,0
555,554000,23187,33726,39885,0
556,555000,23693,33053,39930,0
557,556000,24280,32516,39758,0
558,557000,24887,32167,39389,0
559,558000,25458,32041,38857,0
560,559000,25934,32150,38215,0
561,560000,26274,32482,37524,0
562,561000,26437,33008,36854,0
563,562000,26413,33673,36269,0
564,563000,26201,34415,35828,0
565,564000,25822,35158,35574,0
566,565000,25316,35831,35530,0
567,566000,24728,36369,35703,0
568,567000,24120,36716,36074,0
569,568000,23550,36842,36606,0
570,569000,23074,36731,37248,0
571,570000,22737,36398,37938,0
572,571000,22574,35873,38606,0
573,572000,22597,35209,39190,0
574,573000,22810,34468,39630,0
575,574000,23187,33726,39885,0
576,575000,23693,33053,39930,0
577,576000,24280,32516,39758,0
578,577000,24887,32167,39389,0
579,578000,25458,32041,38857,0
580,579000,25934,32150,38215,0
581,580000,26274,32482,37524,0
582,581000,26437,33008,36854,0
583,582000,26413,33673,36269,0
584,583000,26201,34415,35829,0
585,584000,25822,35158,35574,0
586,585000,25316,35831,35530,0
587,586000,24728,36369,35703,0
588,587000,24120,36716,36073,0
589,588000,23550,36842,36606,0
590,589000,23074,36731,37248,0
591,590000,22737,36398,37938,0
592,591000,22574,35873,38606,0
593,592000,22597,35209,39190,0
594,593000,22810,34468,39630,0
595,594000,23187,33726,39886,0
596,595000,23693,33053,39930,0
597,596000,24280,32515,39758,0
598,597000,24887,32167,39389,0
599,598000,25458,32041,38857,0
600,599000,25934,32150,38215,0
601,600000,26274,32482,37524,0
602,601000,26437,33008,36854,0
603,602000,26413,33673,36269,0
604,603000,26201,34415,35828,0
605,604000,25822,35158,35574,0
606,605000,25316,35831,35530,0
607,606000,24728,36369,35703,0
608,607000,24120,36716,36073,0
609,608000,23550,36841,36606,0
610,609000,23074,36731,37248,0
611,610000,22737,36398,37938,0
612,611000,22574,35873,38606,0
613,612000,22597,35209,39190,0
614,613000,22810,34468,39630,0
615,614000,23187,33726,39886,0
616,615000,23693,33053,39930,0
617,616000,24280,32515,39758,0
618,617000,24887,32167,39389,0
619,618000,25458,32041,38857,0
620,619000,25934,32150,38215,0
621,620000,26274,32482,37524,0
622,621000,26437,33008,36854,0
623,622000,26413,33673,36269,0
624,623000,26201,34415,35828,0
625,624000,25822,35158,35574,0
626,625000,25316,35831,35530,0
627,626000,24728,36369,35703,0
628,627000,24120,36716,36074,0
629,628000,23550,36842,36606,0
630,629000,23074,36731,37248,0
631,630000,22737,36398,37938,0
632,631000,22574,35873,38606,0
633,632000,22597,35209,39190,0
634,633000,22810,34468,39630,0
635,634000,23187,33726,39885,0
636,635000,23693,33053,39930,0
637,636000,24280,32516,39758,0
638,637000,24887,32167,39389,0
639,638000,25458,32041,38857,0
640,639000,25934,32150,38215,0
641,640000,26274,32482,37524,0
642,641000,26437,33008,36854,0
