RTDS Simulation, 0,1999
4,3A,1D
1,IaLine,,,KA,2.13288E-5,-0.767398,0,0,65535,1.0,1.0,P
2,IbLine,,,KA,1.26078E-5,-0.439273,0,0,65535,1.0,1.0,P
3,IcLine,,,KA,8.8787E-5,-2.29875,0,0,65535,1.0,1.0,P
1,LG_FLT,0,,0
50.0
1
1000.0,2000
04/02/2020,03:29:38.341000
04/02/2020,03:29:39.341000
ASCII
1
1,0,22687,41252,28173,0
2,1000,24350,34064,28794,0
3,2000,27152,26952,29131,0
4,3000,30817,20597,29153,0
5,4000,34994,15633,28854,0
6,5000,39271,12542,28266,0
7,6000,43231,11633,27443,0
8,7000,46484,13006,26467,0
9,8000,48706,16522,25434,0
10,9000,49678,21841,24445,0
11,10000,49304,28436,23599,0
12,11000,47622,35662,22977,0
13,12000,44797,42798,22642,0
14,13000,41110,49149,22626,0
15,14000,36925,54089,22930,0
16,15000,32653,57139,23523,0
17,16000,28712,58010,24346,0
18,17000,25483,56613,25320,0
19,18000,23281,53099,26348,0
20,19000,22319,47805,27331,0
21,20000,22688,41250,28173,0
22,21000,24352,34062,28794,0
23,22000,27153,26950,29131,0
24,23000,30819,20596,29153,0
25,24000,34995,15632,28854,0
26,25000,39273,12542,28265,0
27,26000,43232,11635,27443,0
28,27000,46484,13008,26467,0
29,28000,48706,16524,25434,0
30,29000,49677,21843,24445,0
31,30000,49303,28439,23599,0
32,31000,47620,35664,22977,0
33,32000,44795,42800,22642,0
34,33000,41109,49150,22626,0
35,34000,36924,54089,22930,0
36,35000,32652,57138,23523,0
37,36000,28711,58008,24346,0
38,37000,25482,56611,25320,0
39,38000,23281,53097,26348,0
40,39000,22320,47802,27331,0
41,40000,22689,41247,28173,0
42,41000,24353,34060,28794,0
43,42000,27155,26948,29131,0
44,43000,30820,20594,29152,0
45,44000,34997,15632,28854,0
46,45000,39274,12543,28265,0
47,46000,43233,11636,27443,0
48,47000,46485,13010,26466,0
49,48000,48706,16527,25433,0
50,49000,49676,21846,24445,0
51,50000,49302,28441,23598,0
52,51000,47619,35667,22977,0
53,52000,44794,42801,22642,0
54,53000,41107,49152,22626,0
55,54000,36922,54089,22930,0
56,55000,32650,57138,23524,0
57,56000,28710,58007,24347,0
58,57000,25482,56609,25321,0
59,58000,23282,53094,26348,0
60,59000,22320,47799,27331,0
61,60000,22690,41244,28173,0
62,61000,24355,34057,28794,0
63,62000,27156,26946,29131,0
64,63000,30822,20593,29152,0
65,64000,34998,15632,28853,0
66,65000,39275,12543,28265,0
67,66000,43234,11637,27442,0
68,67000,46485,13012,26466,0
69,68000,48706,16529,25433,0
70,69000,49676,21849,24445,0
71,70000,49301,28444,23598,0
72,71000,47618,35669,22977,0
73,72000,44792,42803,22642,0
74,73000,41106,49153,22626,0
75,74000,36921,54089,22931,0
76,75000,32649,57137,23524,0
77,76000,28709,58006,24347,0
78,77000,25482,56607,25321,0
79,78000,23282,53092,26349,0
80,79000,22321,47797,27331,0
81,80000,22691,41241,28173,0
82,81000,24356,34055,28794,0
83,82000,27158,26944,29131,0
84,83000,30824,20592,29152,0
85,84000,35000,15631,28853,0
86,85000,39276,12544,28264,0
87,86000,43235,11639,27442,0
88,87000,46485,13014,26466,0
89,88000,48706,16532,25433,0
90,89000,49675,21852,24445,0
91,90000,49300,28447,23598,0
92,91000,47616,35671,22977,0
93,92000,44791,42805,22642,0
94,93000,41104,49154,22627,0
95,94000,36919,54090,22931,0
96,95000,32648,57137,23524,0
97,96000,28709,58004,24347,0
98,97000,25481,56605,25321,0
99,98000,23282,53089,26349,0
100,99000,22322,47794,27332,0
101,100000,22692,41239,28174,0
102,101000,24357,34052,28794,0
103,102000,27160,26942,29130,0
104,103000,30825,20591,29152,0
105,104000,35001,15631,28853,0
106,105000,39278,12544,28264,0
107,106000,43236,11640,27441,0
108,107000,46486,13016,26465,0
109,108000,48705,16534,25433,0
110,109000,49674,21854,24444,0
111,110000,49299,28449,23598,0
112,111000,47615,35674,22977,0
113,112000,44789,42807,22643,0
114,113000,41102,49155,22627,0
115,114000,36918,54090,22931,0
116,115000,32647,57136,23525,0
117,116000,28708,58003,24348,0
118,117000,25481,56603,25322,0
119,118000,23282,53087,26349,0
120,119000,22322,47791,27332,0
121,120000,22693,41236,28174,0
122,121000,24359,34050,28794,0
123,122000,27161,26940,29130,0
124,123000,30827,20590,29151,0
125,124000,35003,15631,28852,0
126,125000,39279,12545,28264,0
127,126000,43237,11641,27441,0
128,127000,46486,13018,26465,0
129,128000,48705,16537,25432,0
130,129000,49674,21857,24444,0
131,130000,49298,28452,23598,0
132,131000,47613,35676,22977,0
133,132000,44788,42809,22643,0
134,133000,41101,49156,22627,0
135,134000,36916,54090,22932,0
136,135000,32646,57136,23525,0
137,136000,28707,58002,24348,0
138,137000,25481,56601,25322,0
139,138000,23282,53084,26350,0
140,139000,22323,47789,27332,0
141,140000,22694,41233,28174,0
142,141000,24360,34048,28794,0
143,142000,27163,26938,29130,0
144,143000,30829,20588,29151,0
145,144000,35004,15630,28852,0
146,145000,39280,12545,28263,0
147,146000,43237,11643,27441,0
148,147000,46486,13020,26465,0
149,148000,48705,16539,25432,0
150,149000,49673,21860,24444,0
151,150000,49296,28455,23598,0
152,151000,47612,35678,22977,0
153,152000,44786,42810,22643,0
154,153000,41099,49157,22627,0
155,154000,36915,54090,22932,0
156,155000,32645,57135,23525,0
157,156000,28706,58000,24349,0
158,157000,25480,56599,25323,0
159,158000,23282,53082,26350,0
160,159000,22323,47786,27332,0
161,160000,22695,41231,28174,0
162,161000,24361,34045,28794,0
163,162000,27164,26936,29130,0
164,163000,30830,20587,29151,0
165,164000,35006,15630,28852,0
166,165000,39281,12546,28263,0
167,166000,43238,11644,27440,0
168,167000,46487,13022,26464,0
169,168000,48705,16542,25432,0
170,169000,49672,21862,24444,0
171,170000,49295,28457,23598,0
172,171000,47611,35681,22977,0
173,172000,44785,42812,22643,0
174,173000,41098,49158,22627,0
175,174000,36914,54091,22932,0
176,175000,32643,57134,23526,0
177,176000,28705,57999,24349,0
178,177000,25480,56597,25323,0
179,178000,23283,53079,26350,0
180,179000,22324,47783,27333,0
181,180000,22696,41228,28174,0
182,181000,24363,34043,28794,0
183,182000,27166,26935,29130,0
184,183000,30832,20586,29151,0
185,184000,35007,15630,28852,0
186,185000,39283,12546,28262,0
187,186000,43239,11645,27440,0
188,187000,46487,13024,26464,0
189,188000,48705,16544,25431,0
190,189000,49672,21865,24443,0
191,190000,49294,28460,23598,0
192,191000,47609,35683,22977,0
193,192000,44783,42814,22643,0
194,193000,41096,49159,22628,0
195,194000,36912,54091,22932,0
196,195000,32642,57134,23526,0
197,196000,28705,57998,24349,0
198,197000,25480,56595,25323,0
199,198000,23283,53077,26351,0
200,199000,22325,47781,27333,0
201,200000,22697,41226,28174,0
202,201000,24364,34041,28794,0
203,202000,27167,26933,29130,0
204,203000,30833,20585,29151,0
205,204000,35009,15629,28851,0
206,205000,39284,12547,28262,0
207,206000,43240,11647,27439,0
208,207000,46488,13026,26463,0
209,208000,48705,16547,25431,0
210,209000,49671,21868,24443,0
211,210000,49293,28462,23597,0
212,211000,47608,35685,22977,0
213,212000,44781,42816,22643,0
214,213000,41095,49160,22628,0
215,214000,36911,54091,22933,0
216,215000,32641,57133,23526,0
217,216000,28704,57996,24350,0
218,217000,25479,56593,25324,0
219,218000,23283,53075,26351,0
220,219000,22325,47778,27333,0
221,220000,22698,41223,28174,0
222,221000,24366,34038,28794,0
223,222000,27169,26931,29130,0
224,223000,30835,20584,29150,0
225,224000,35010,15629,28851,0
226,225000,39285,12547,28262,0
227,226000,43241,11648,27439,0
228,227000,46488,13028,26463,0
229,228000,48704,16549,25431,0
230,229000,49670,21870,24443,0
231,230000,49292,28465,23597,0
232,231000,47607,35687,22977,0
233,232000,44780,42817,22643,0
234,233000,41093,49161,22628,0
235,234000,36909,54091,22933,0
236,235000,32640,57133,23527,0
237,236000,28703,57995,24350,0
238,237000,25479,56591,25324,0
239,238000,23283,53072,26351,0
240,239000,22326,47775,27333,0
241,240000,22699,41220,28174,0
242,241000,24367,34036,28794,0
243,242000,27171,26929,29130,0
244,243000,30837,20583,29150,0
245,244000,35012,15629,28851,0
246,245000,39286,12548,28261,0
247,246000,43242,11649,27439,0
248,247000,46488,13030,26463,0
249,248000,48704,16551,25430,0
250,249000,49670,21873,24443,0
251,250000,49291,28468,23597,0
252,251000,47604,35688,22977,0
253,252000,44778,42819,22644,0
254,253000,41091,49160,22629,0
255,254000,36908,54091,22934,0
256,255000,32639,57132,23527,0
257,256000,28702,57993,24351,0
258,257000,25479,56590,25324,0
259,258000,23283,53070,26351,0
260,259000,22327,47773,27333,0
261,260000,22700,41218,28174,0
262,261000,24368,34034,28794,0
263,262000,27172,26927,29130,0
264,263000,30838,20582,29150,0
265,264000,35013,15628,28850,0
266,265000,39287,12548,28261,0
267,266000,43242,11650,27438,0
268,267000,46488,13032,26462,0
269,268000,48704,16554,25430,0
270,269000,49669,21876,24443,0
271,270000,49290,28470,23597,0
272,271000,47604,35692,22977,0
273,272000,44777,42821,22644,0
274,273000,41090,49163,22629,0
275,274000,36907,54092,22934,0
276,275000,32638,57132,23528,0
277,276000,28702,57992,24351,0
278,277000,25479,56587,25325,0
279,278000,23283,53067,26352,0
280,279000,22327,47770,27334,0
281,280000,22701,41215,28175,0
282,281000,24370,34031,28794,0
283,282000,27174,26926,29129,0
284,283000,30840,20580,29150,0
285,284000,35015,15628,28850,0
286,285000,39289,12549,28261,0
287,286000,43243,11652,27438,0
288,287000,46489,13034,26462,0
289,288000,48704,16556,25430,0
290,289000,49668,21878,24442,0
291,290000,49289,28473,23597,0
292,291000,47603,35694,22977,0
293,292000,44775,42822,22644,0
294,293000,41089,49164,22629,0
295,294000,36905,54092,22934,0
296,295000,32637,57131,23528,0
297,296000,28701,57991,24351,0
298,297000,25478,56585,25325,0
299,298000,23284,53065,26352,0
300,299000,22328,47768,27334,0
301,300000,22702,41213,28175,0
302,301000,24371,34029,28794,0
303,302000,27175,26924,29129,0
304,303000,30841,20579,29149,0
305,304000,35016,15628,28850,0
306,305000,39290,12549,28260,0
307,306000,43244,11653,27438,0
308,307000,46489,13036,26462,0
309,308000,48704,16559,25429,0
310,309000,49668,21881,24442,0
311,310000,49288,28475,23597,0
312,311000,47601,35696,22977,0
313,312000,44774,42824,22644,0
314,313000,41087,49165,22629,0
315,314000,36904,54092,22934,0
316,315000,32636,57130,23528,0
317,316000,28700,57990,24352,0
318,317000,25478,56583,25325,0
319,318000,23284,53063,26352,0
320,319000,22329,47765,27334,0
321,320000,22703,41210,28175,0
322,321000,24372,34027,28794,0
323,322000,27177,26922,29129,0
324,323000,30843,20578,29149,0
325,324000,35018,15627,28849,0
326,325000,39291,12550,28260,0
327,326000,43245,11655,27437,0
328,327000,46490,13038,26461,0
329,328000,48704,16561,25429,0
330,329000,49667,21884,24442,0
331,330000,49287,28478,23597,0
332,331000,47600,35699,22977,0
333,332000,44772,42826,22644,0
334,333000,41086,49166,22629,0
335,334000,36902,54092,22935,0
336,335000,32634,57130,23529,0
337,336000,28699,57988,24352,0
338,337000,25478,56581,25326,0
339,338000,23284,53060,26353,0
340,339000,22329,47762,27334,0
341,340000,22704,41207,28175,0
342,341000,24374,34024,28794,0
343,342000,27178,26920,29129,0
344,343000,30844,20577,29149,0
345,344000,35019,15627,28849,0
346,345000,39292,12550,28260,0
347,346000,43246,11656,27437,0
348,347000,46490,13040,26461,0
349,348000,48703,16564,25429,0
350,349000,49667,21886,24442,0
351,350000,49286,28481,23597,0
352,351000,47597,35698,22978,0
353,352000,44770,42826,22645,0
354,353000,41083,49164,22630,0
355,354000,36900,54091,22935,0
356,355000,32633,57129,23529,0
357,356000,28698,57986,24353,0
358,357000,25478,56581,25326,0
359,358000,23285,53059,26353,0
360,359000,22330,47760,27334,0
361,360000,22706,41206,28175,0
362,361000,24375,34022,28794,0
363,362000,27179,26918,29129,0
364,363000,30846,20577,29149,0
365,364000,35020,15626,28849,0
366,365000,39293,12551,28259,0
367,366000,43246,11657,27437,0
368,367000,46490,13042,26461,0
369,368000,48703,16566,25429,0
370,369000,49666,21889,24441,0
371,370000,49285,28483,23597,0
372,371000,47597,35703,22977,0
373,372000,44769,42829,22644,0
374,373000,41083,49168,22630,0
375,374000,36900,54093,22935,0
376,375000,32632,57129,23529,0
377,376000,28698,57986,24353,0
378,377000,25477,56577,25326,0
379,378000,23284,53056,26353,0
380,379000,22330,47757,27335,0
381,380000,22706,41202,28175,0
382,381000,24376,34020,28794,0
383,382000,27181,26917,29129,0
384,383000,30847,20575,29149,0
385,384000,35022,15626,28849,0
386,385000,39294,12551,28259,0
387,386000,43247,11658,27436,0
388,387000,46491,13044,26460,0
389,388000,48703,16568,25428,0
390,389000,49665,21891,24441,0
391,390000,49284,28485,23596,0
392,391000,47596,35705,22977,0
393,392000,44768,42831,22644,0
394,393000,41081,49169,22630,0
395,394000,36898,54093,22935,0
396,395000,32631,57128,23530,0
397,396000,28697,57985,24353,0
398,397000,25477,56575,25327,0
399,398000,23284,53053,26354,0
400,399000,22331,47755,27335,0
401,400000,22707,41200,28175,0
402,401000,24378,34018,28794,0
403,402000,27183,26915,29129,0
404,403000,30849,20574,29148,0
405,404000,35023,15626,28848,0
406,405000,39296,12552,28258,0
407,406000,43248,11660,27436,0
408,407000,46491,13046,26460,0
409,408000,48703,16571,25428,0
410,409000,49665,21894,24441,0
411,410000,49283,28488,23596,0
412,411000,47594,35706,22977,0
413,412000,44766,42832,22644,0
414,413000,41079,49169,22631,0
415,414000,36897,54093,22936,0
416,415000,32630,57127,23530,0
417,416000,28696,57983,24354,0
418,417000,25477,56574,25327,0
419,418000,23284,53051,26354,0
420,419000,22332,47753,27335,0
421,420000,22708,41198,28175,0
422,421000,24379,34015,28794,0
423,422000,27184,26913,29129,0
424,423000,30851,20573,29148,0
425,424000,35025,15625,28848,0
426,425000,39297,12552,28258,0
427,426000,43249,11661,27435,0
428,427000,46491,13048,26460,0
429,428000,48703,16573,25428,0
430,429000,49664,21896,24441,0
431,430000,49282,28490,23596,0
432,431000,47593,35710,22977,0
433,432000,44765,42834,22644,0
434,433000,41078,49171,22630,0
435,434000,36896,54094,22936,0
436,435000,32629,57127,23530,0
437,436000,28696,57982,24354,0
438,437000,25476,56572,25327,0
439,438000,23285,53049,26354,0
440,439000,22332,47750,27335,0
441,440000,22709,41195,28176,0
442,441000,24380,34013,28794,0
443,442000,27186,26911,29129,0
444,443000,30852,20571,29148,0
445,444000,35026,15625,28848,0
446,445000,39298,12553,28258,0
447,446000,43250,11662,27435,0
448,447000,46492,13050,26459,0
449,448000,48703,16575,25427,0
450,449000,49664,21899,24441,0
451,450000,49281,28493,23596,0
452,451000,47591,35711,22977,0
453,452000,44763,42835,22645,0
454,453000,41076,49171,22631,0
455,454000,36894,54093,22937,0
456,455000,32628,57127,23531,0
457,456000,28695,57980,24354,0
458,457000,25476,56571,25328,0
459,458000,23285,53047,26354,0
460,459000,22333,47747,27336,0
461,460000,22711,41193,28175,0
462,461000,24381,34011,28794,0
463,462000,27187,26909,29128,0
464,463000,30854,20571,29148,0
465,464000,35027,15625,28847,0
466,465000,39299,12553,28257,0
467,466000,43250,11663,27435,0
468,467000,46492,13051,26459,0
469,468000,48703,16577,25427,0
470,469000,49663,21901,24440,0
471,470000,49280,28496,23596,0
472,471000,47590,35713,22977,0
473,472000,44762,42837,22645,0
474,473000,41074,49172,22631,0
475,474000,36893,54094,22937,0
476,475000,32627,57126,23531,0
477,476000,28694,57979,24355,0
478,477000,25476,56569,25328,0
479,478000,23285,53044,26355,0
480,479000,22333,47745,27336,0
481,480000,22711,41190,28176,0
482,481000,24383,34009,28794,0
483,482000,27188,26908,29128,0
484,483000,30855,20569,29148,0
485,484000,35029,15624,28847,0
486,485000,39300,12554,28257,0
487,486000,43251,11664,27434,0
488,487000,46492,13053,26458,0
489,488000,48703,16580,25427,0
490,489000,49663,21904,24440,0
491,490000,49279,28498,23596,0
492,491000,47590,35716,22977,0
493,492000,44761,42839,22645,0
494,493000,41074,49174,22631,0
495,494000,36892,54095,22937,0
496,495000,32626,57126,23531,0
497,496000,28693,57979,24355,0
498,497000,25475,56567,25328,0
499,498000,23285,53042,26355,0
500,499000,22334,47743,27336,0
501,500000,22712,41188,28176,0
502,501000,24384,34006,28794,0
503,502000,27190,26906,29128,0
504,503000,30856,20568,29147,0
505,504000,35030,15624,28847,0
506,505000,39301,12554,28257,0
507,506000,43252,11665,27434,0
508,507000,46493,13055,26458,0
509,508000,48703,16582,25426,0
510,509000,49662,21906,24440,0
511,510000,49278,28500,23596,0
512,511000,47588,35718,22977,0
513,512000,44759,42841,22645,0
514,513000,41072,49175,22631,0
515,514000,36890,54095,22937,0
516,515000,32624,57125,23532,0
517,516000,28693,57977,24355,0
518,517000,25475,56565,25329,0
519,518000,23285,53040,26355,0
520,519000,22334,47740,27336,0
521,520000,22713,41185,28176,0
522,521000,24385,34004,28794,0
523,522000,27191,26904,29128,0
524,523000,30858,20567,29147,0
525,524000,35032,15624,28847,0
526,525000,39303,12554,28256,0
527,526000,43253,11667,27434,0
528,527000,46493,13057,26458,0
529,528000,48702,16584,25426,0
530,529000,49661,21909,24440,0
531,530000,49278,28503,23595,0
532,531000,47586,35718,22977,0
533,532000,44757,42841,22645,0
534,533000,41070,49174,22632,0
535,534000,36888,54094,22938,0
536,535000,32624,57125,23532,0
537,536000,28691,57975,24356,0
538,537000,25475,56564,25329,0
539,538000,23286,53038,26355,0
540,539000,22335,47738,27336,0
541,540000,22714,41184,28176,0
542,541000,24386,34002,28794,0
543,542000,27192,26902,29128,0
544,543000,30860,20566,29147,0
545,544000,35033,15623,28846,0
546,545000,39304,12555,28256,0
547,546000,43253,11667,27433,0
548,547000,46493,13058,26457,0
549,548000,48702,16586,25426,0
550,549000,49661,21911,24439,0
551,550000,49276,28505,23596,0
552,551000,47586,35723,22977,0
553,552000,44757,42844,22645,0
554,553000,41070,49178,22631,0
555,554000,36888,54096,22938,0
556,555000,32622,57125,23532,0
557,556000,28691,57975,24356,0
558,557000,25474,56561,25329,0
559,558000,23285,53036,26356,0
560,559000,22335,47735,27337,0
561,560000,22715,41180,28176,0
562,561000,24387,34000,28794,0
563,562000,27194,26901,29128,0
564,563000,30861,20565,29147,0
565,564000,35034,15623,28846,0
566,565000,39305,12555,28256,0
567,566000,43254,11669,27433,0
568,567000,46494,13060,26457,0
569,568000,48702,16589,25426,0
570,569000,49660,21914,24439,0
571,570000,49276,28508,23595,0
572,571000,47584,35723,22977,0
573,572000,44755,42846,22645,0
574,573000,41067,49177,22632,0
575,574000,36886,54095,22938,0
576,575000,32621,57124,23533,0
577,576000,28690,57973,24356,0
578,577000,25474,56560,25330,0
579,578000,23285,53033,26356,0
580,579000,22336,47733,27337,0
581,580000,22716,41178,28176,0
582,581000,24389,33998,28794,0
583,582000,27195,26899,29128,0
584,583000,30862,20564,29147,0
585,584000,35036,15622,28846,0
586,585000,39306,12556,28255,0
587,586000,43255,11670,27433,0
588,587000,46494,13062,26457,0
589,588000,48702,16591,25425,0
590,589000,49660,21916,24439,0
591,590000,49274,28510,23595,0
592,591000,47583,35726,22977,0
593,592000,44753,42846,22646,0
594,593000,41066,49179,22632,0
595,594000,36885,54095,22938,0
596,595000,32620,57124,23533,0
597,596000,28689,57972,24357,0
598,597000,25474,56559,25330,0
599,598000,23286,53032,26356,0
600,599000,22336,47731,27337,0
601,600000,22717,41176,28176,0
602,601000,24390,33996,28794,0
603,602000,27197,26897,29128,0
604,603000,30864,20563,29146,0
605,604000,35037,15622,28846,0
606,605000,39307,12556,28255,0
607,606000,43256,11671,27432,0
608,607000,46495,13064,26456,0
609,608000,48702,16593,25425,0
610,609000,49659,21918,24439,0
611,610000,49274,28512,23595,0
612,611000,47581,35728,22977,0
613,612000,44752,42849,22645,0
614,613000,41064,49179,22632,0
615,614000,36883,54096,22939,0
616,615000,32619,57123,23533,0
617,616000,28688,57971,24357,0
618,617000,25474,56557,25330,0
619,618000,23285,53029,26357,0
620,619000,22337,47729,27337,0
621,620000,22718,41173,28177,0
622,621000,24391,33994,28794,0
623,622000,27198,26895,29128,0
624,623000,30865,20562,29146,0
625,624000,35038,15621,28845,0
626,625000,39308,12556,28255,0
627,626000,43257,11672,27432,0
628,627000,46495,13065,26456,0
629,628000,48702,16595,25425,0
630,629000,49659,21921,24439,0
631,630000,49273,28514,23595,0
632,631000,47581,35731,22977,0
633,632000,44751,42851,22645,0
634,633000,41064,49182,22632,0
635,634000,36883,54097,22939,0
636,635000,32618,57123,23533,0
637,636000,28688,57971,24357,0
638,637000,25473,56554,25331,0
639,638000,23286,53027,26357,0
640,639000,22337,47726,27338,0
641,640000,22718,41171,28177,0
642,641000,24392,33991,28794,0
