RTDS Simulation, 0,1999
4,3A,1D
1,IaLine,,,KA,5.87534E-4,-13.2463,0,0,65535,1.0,1.0,P
2,IbLine,,,KA,1.05541E-4,-3.42574,0,0,65535,1.0,1.0,P
3,IcLine,,,KA,6.67881E-5,-1.69802,0,0,65535,1.0,1.0,P
1,LG_FLT,0,,0
50.0
1
4000.0,8000
04/02/2020,03:23:35.542000
04/02/2020,03:23:36.542000
ASCII
1
1,0,23036,30778,23758,0
2,250,23039,30956,23449,0
3,500,23040,31142,23152,0
4,750,23038,31336,22865,0
5,1000,23032,31536,22594,0
6,1250,23024,31742,22343,0
7,1500,23012,31954,22112,0
8,1750,22998,32169,21900,0
9,2000,22981,32384,21709,0
10,2250,22961,32601,21542,0
11,2500,22938,32817,21400,0
12,2750,22913,33031,21282,0
13,3000,22886,33240,21187,0
14,3250,22857,33445,21120,0
15,3500,22826,33644,21080,0
16,3750,22793,33836,21067,0
17,4000,22759,34019,21080,0
18,4250,22723,34192,21119,0
19,4500,22686,34355,21188,0
20,4750,22648,34507,21282,0
21,5000,22610,34645,21399,0
22,5250,22571,34770,21541,0
23,5500,22532,34880,21708,0
24,5750,22493,34976,21899,0
25,6000,22455,35057,22111,0
26,6250,22417,35120,22342,0
27,6500,22380,35168,22593,0
28,6750,22344,35199,22863,0
29,7000,22309,35214,23147,0
30,7250,22276,35211,23444,0
31,7500,22244,35191,23755,0
32,7750,22214,35154,24076,0
33,8000,22186,35100,24405,0
34,8250,22161,35030,24739,0
35,8500,22137,34946,25079,0
36,8750,22116,34846,25423,0
37,9000,22098,34731,25764,0
38,9250,22083,34601,26102,0
39,9500,22071,34458,26437,0
40,9750,22061,34304,26767,0
41,10000,22054,34137,27088,0
42,10250,22051,33959,27397,0
43,10500,22051,33774,27694,0
44,10750,22053,33581,27981,0
45,11000,22058,33381,28251,0
46,11250,22067,33174,28502,0
47,11500,22078,32963,28733,0
48,11750,22093,32749,28945,0
49,12000,22110,32533,29135,0
50,12250,22130,32316,29302,0
51,12500,22152,32100,29444,0
52,12750,22177,31887,29563,0
53,13000,22204,31678,29658,0
54,13250,22233,31474,29725,0
55,13500,22264,31275,29765,0
56,13750,22297,31083,29779,0
57,14000,22331,30900,29766,0
58,14250,22367,30726,29726,0
59,14500,22404,30563,29659,0
60,14750,22442,30412,29565,0
61,15000,22480,30273,29448,0
62,15250,22519,30148,29307,0
63,15500,22557,30038,29140,0
64,15750,22596,29941,28949,0
65,16000,22635,29861,28738,0
66,16250,22673,29797,28507,0
67,16500,22710,29748,28256,0
68,16750,22746,29717,27987,0
69,17000,22781,29703,27703,0
70,17250,22814,29705,27406,0
71,17500,22846,29725,27095,0
72,17750,22876,29761,26773,0
73,18000,22904,29815,26444,0
74,18250,22929,29885,26111,0
75,18500,22953,29969,25770,0
76,18750,22974,30069,25427,0
77,19000,22992,30184,25084,0
78,19250,23007,30315,24746,0
79,19500,23020,30457,24411,0
80,19750,23029,30612,24080,0
81,20000,23036,30778,23758,0
82,20250,23039,30956,23449,0
83,20500,23040,31142,23152,0
84,20750,23038,31336,22865,0
85,21000,23032,31536,22594,0
86,21250,23024,31742,22343,0
87,21500,23012,31954,22112,0
88,21750,22998,32169,21900,0
89,22000,22981,32385,21709,0
90,22250,22961,32601,21542,0
91,22500,22938,32817,21400,0
92,22750,22913,33031,21282,0
93,23000,22886,33240,21187,0
94,23250,22857,33445,21119,0
95,23500,22826,33644,21080,0
96,23750,22793,33836,21067,0
97,24000,22759,34019,21079,0
98,24250,22723,34192,21119,0
99,24500,22686,34355,21187,0
100,24750,22648,34507,21282,0
101,25000,22610,34645,21399,0
102,25250,22571,34770,21541,0
103,25500,22532,34880,21708,0
104,25750,22493,34976,21900,0
105,26000,22455,35057,22111,0
106,26250,22417,35120,22342,0
107,26500,22380,35168,22593,0
108,26750,22344,35200,22863,0
109,27000,22309,35214,23147,0
110,27250,22276,35211,23444,0
111,27500,22244,35191,23754,0
112,27750,22214,35154,24076,0
113,28000,22186,35100,24405,0
114,28250,22161,35030,24739,0
115,28500,22137,34946,25079,0
116,28750,22116,34846,25422,0
117,29000,22098,34731,25764,0
118,29250,22083,34601,26102,0
119,29500,22071,34458,26436,0
120,29750,22061,34304,26767,0
121,30000,22054,34137,27088,0
122,30250,22051,33959,27397,0
123,30500,22051,33774,27695,0
124,30750,22053,33581,27981,0
125,31000,22058,33381,28251,0
126,31250,22067,33174,28502,0
127,31500,22078,32963,28733,0
128,31750,22093,32749,28945,0
129,32000,22110,32533,29135,0
130,32250,22130,32316,29302,0
131,32500,22152,32100,29444,0
132,32750,22177,31887,29563,0
133,33000,22204,31678,29658,0
134,33250,22233,31474,29725,0
135,33500,22264,31275,29765,0
136,33750,22297,31083,29778,0
137,34000,22331,30900,29766,0
138,34250,22367,30726,29726,0
139,34500,22404,30563,29659,0
140,34750,22442,30412,29565,0
141,35000,22480,30273,29448,0
142,35250,22519,30148,29307,0
143,35500,22557,30038,29140,0
144,35750,22596,29941,28949,0
145,36000,22635,29861,28738,0
146,36250,22673,29797,28507,0
147,36500,22710,29748,28256,0
148,36750,22746,29717,27987,0
149,37000,22781,29703,27703,0
150,37250,22814,29705,27406,0
151,37500,22846,29725,27095,0
152,37750,22876,29761,26773,0
153,38000,22904,29815,26444,0
154,38250,22929,29885,26111,0
155,38500,22953,29969,25770,0
156,38750,22974,30069,25427,0
157,39000,22992,30184,25084,0
158,39250,23007,30315,24746,0
159,39500,23020,30457,24411,0
160,39750,23029,30612,24080,0
161,40000,23036,30778,23758,0
162,40250,23039,30956,23449,0
163,40500,23040,31142,23152,0
164,40750,23038,31336,22865,0
165,41000,23032,31536,22594,0
166,41250,23024,31742,22343,0
167,41500,23012,31954,22112,0
168,41750,22998,32169,21900,0
169,42000,22981,32384,21709,0
170,42250,22961,32601,21542,0
171,42500,22938,32817,21400,0
172,42750,22913,33031,21282,0
173,43000,22886,33240,21187,0
174,43250,22857,33445,21120,0
175,43500,22826,33644,21080,0
176,43750,22793,33836,21067,0
177,44000,22759,34019,21080,0
178,44250,22723,34192,21119,0
179,44500,22686,34355,21188,0
180,44750,22648,34507,21282,0
181,45000,22610,34645,21399,0
182,45250,22571,34770,21541,0
183,45500,22532,34880,21708,0
184,45750,22493,34976,21899,0
185,46000,22455,35057,22111,0
186,46250,22417,35120,22342,0
187,46500,22380,35168,22593,0
188,46750,22344,35199,22863,0
189,47000,22309,35214,23147,0
190,47250,22276,35211,23444,0
191,47500,22244,35191,23755,0
192,47750,22214,35154,24076,0
193,48000,22186,35101,24405,0
194,48250,22161,35030,24739,0
195,48500,22137,34946,25079,0
196,48750,22116,34846,25423,0
197,49000,22098,34731,25764,0
198,49250,22083,34601,26102,0
199,49500,22071,34458,26437,0
200,49750,22061,34304,26767,0
201,50000,22054,34137,27088,0
202,50250,22051,33959,27397,0
203,50500,22051,33774,27694,0
204,50750,22053,33581,27981,0
205,51000,22058,33381,28251,0
206,51250,22067,33174,28502,0
207,51500,22078,32963,28733,0
208,51750,22093,32749,28945,0
209,52000,22110,32533,29135,0
210,52250,22130,32316,29302,0
211,52500,22152,32100,29444,0
212,52750,22177,31887,29563,0
213,53000,22204,31678,29658,0
214,53250,22233,31474,29725,0
215,53500,22264,31275,29765,0
216,53750,22297,31083,29779,0
217,54000,22331,30900,29766,0
218,54250,22367,30726,29726,0
219,54500,22404,30563,29659,0
220,54750,22442,30412,29565,0
221,55000,22480,30273,29448,0
222,55250,22519,30148,29307,0
223,55500,22557,30038,29140,0
224,55750,22596,29941,28949,0
225,56000,22635,29861,28738,0
226,56250,22673,29797,28507,0
227,56500,22710,29748,28256,0
228,56750,22746,29717,27987,0
229,57000,22781,29703,27703,0
230,57250,22814,29705,27406,0
231,57500,22846,29725,27095,0
232,57750,22876,29761,26773,0
233,58000,22904,29815,26444,0
234,58250,22929,29885,26111,0
235,58500,22953,29969,25770,0
236,58750,22974,30069,25427,0
237,59000,22992,30184,25084,0
238,59250,23007,30315,24746,0
239,59500,23020,30457,24411,0
240,59750,23029,30612,24080,0
241,60000,23036,30778,23758,0
242,60250,23039,30956,23449,0
243,60500,23040,31142,23152,0
244,60750,23038,31336,22865,0
245,61000,23032,31536,22594,0
246,61250,23024,31742,22343,0
247,61500,23012,31954,22112,0
248,61750,22998,32169,21900,0
249,62000,22981,32385,21709,0
250,62250,22961,32601,21542,0
251,62500,22938,32817,21400,0
252,62750,22913,33031,21282,0
253,63000,22886,33240,21187,0
254,63250,22857,33445,21119,0
255,63500,22826,33644,21080,0
256,63750,22793,33836,21067,0
257,64000,22759,34019,21079,0
258,64250,22723,34192,21119,0
259,64500,22686,34355,21187,0
260,64750,22648,34507,21282,0
261,65000,22610,34645,21399,0
262,65250,22571,34770,21541,0
263,65500,22532,34880,21708,0
264,65750,22493,34976,21900,0
265,66000,22455,35057,22111,0
266,66250,22417,35120,22342,0
267,66500,22380,35168,22593,0
268,66750,22344,35200,22863,0
269,67000,22309,35214,23147,0
270,67250,22276,35211,23444,0
271,67500,22244,35191,23754,0
272,67750,22214,35154,24076,0
273,68000,22186,35100,24405,0
274,68250,22161,35030,24739,0
275,68500,22137,34946,25079,0
276,68750,22116,34846,25422,0
277,69000,22098,34731,25764,0
278,69250,22083,34601,26102,0
279,69500,22071,34458,26436,0
280,69750,22061,34304,26767,0
281,70000,22054,34137,27088,0
282,70250,22051,33959,27397,0
283,70500,22051,33774,27695,0
284,70750,22053,33581,27981,0
285,71000,22058,33381,28251,0
286,71250,22067,33174,28502,0
287,71500,22078,32963,28733,0
288,71750,22093,32749,28945,0
289,72000,22110,32533,29135,0
290,72250,22130,32316,29302,0
291,72500,22152,32100,29444,0
292,72750,22177,31887,29563,0
293,73000,22204,31678,29658,0
294,73250,22233,31474,29725,0
295,73500,22264,31275,29765,0
296,73750,22297,31083,29778,0
297,74000,22331,30900,29766,0
298,74250,22367,30726,29726,0
299,74500,22404,30563,29659,0
300,74750,22442,30412,29565,0
301,75000,22480,30273,29448,0
302,75250,22519,30148,29307,0
303,75500,22557,30038,29140,0
304,75750,22596,29941,28949,0
305,76000,22635,29861,28738,0
306,76250,22673,29797,28507,0
307,76500,22710,29748,28256,0
308,76750,22746,29717,27987,0
309,77000,22781,29703,27703,0
310,77250,22814,29705,27406,0
311,77500,22846,29725,27095,0
312,77750,22876,29761,26773,0
313,78000,22904,29814,26444,0
314,78250,22929,29885,26110,0
315,78500,22953,29969,25770,0
316,78750,22974,30069,25426,0
317,79000,22992,30185,25084,0
318,79250,23007,30315,24746,0
319,79500,23020,30457,24411,0
320,79750,23029,30612,24080,0
321,80000,23036,30778,23758,0
322,80250,23039,30956,23449,0
323,80500,23040,31142,23151,0
324,80750,23038,31335,22865,0
325,81000,23032,31536,22595,0
326,81250,23024,31743,22344,0
327,81500,23012,31954,22112,0
328,81750,22998,32169,21900,0
329,82000,22981,32384,21709,0
330,82250,22961,32601,21542,0
331,82500,22938,32817,21400,0
332,82750,22913,33031,21281,0
333,83000,22886,33240,21187,0
334,83250,22857,33445,21120,0
335,83500,22826,33644,21080,0
336,83750,22793,33836,21067,0
337,84000,22759,34019,21080,0
338,84250,22723,34192,21119,0
339,84500,22686,34355,21188,0
340,84750,22648,34507,21281,0
341,85000,22610,34645,21399,0
342,85250,22571,34770,21541,0
343,85500,22532,34880,21708,0
344,85750,22493,34976,21899,0
345,86000,22455,35057,22111,0
346,86250,22417,35120,22342,0
347,86500,22380,35168,22593,0
348,86750,22344,35199,22863,0
349,87000,22309,35214,23147,0
350,87250,22276,35211,23444,0
351,87500,22244,35191,23755,0
352,87750,22214,35154,24076,0
353,88000,22186,35100,24404,0
354,88250,22161,35030,24737,0
355,88500,22137,34946,25079,0
356,88750,22116,34846,25422,0
357,89000,22098,34731,25765,0
358,89250,22083,34601,26102,0
359,89500,22071,34458,26437,0
360,89750,22061,34304,26767,0
361,90000,22054,34137,27088,0
362,90250,22051,33959,27396,0
363,90500,22051,33773,27694,0
364,90750,22053,33580,27980,0
365,91000,22058,33381,28251,0
366,91250,22067,33174,28502,0
367,91500,22078,32963,28733,0
368,91750,22093,32749,28945,0
369,92000,22110,32533,29136,0
370,92250,22130,32316,29302,0
371,92500,22152,32100,29444,0
372,92750,22177,31887,29563,0
373,93000,22204,31678,29658,0
374,93250,22233,31474,29726,0
375,93500,22264,31275,29766,0
376,93750,22297,31083,29779,0
377,94000,22331,30900,29767,0
378,94250,22367,30726,29727,0
379,94500,22404,30563,29659,0
380,94750,22442,30411,29565,0
381,95000,22480,30273,29448,0
382,95250,22519,30148,29307,0
383,95500,22557,30038,29140,0
384,95750,22596,29941,28949,0
385,96000,22635,29861,28738,0
386,96250,22673,29797,28507,0
387,96500,22710,29748,28256,0
388,96750,22746,29717,27987,0
389,97000,22781,29702,27703,0
390,97250,22814,29705,27406,0
391,97500,22846,29725,27095,0
392,97750,22876,29761,26773,0
393,98000,22904,29814,26444,0
394,98250,22929,29885,26110,0
395,98500,22953,29969,25770,0
396,98750,22974,30069,25426,0
397,99000,22992,30185,25084,0
398,99250,23007,30314,24746,0
399,99500,23020,30457,24411,0
400,99750,23029,30612,24080,0
401,100000,23036,30778,23759,0
402,100250,23039,30956,23449,0
403,100500,23040,31142,23151,0
404,100750,23038,31335,22865,0
405,101000,23032,31536,22595,0
406,101250,23024,31743,22344,0
407,101500,23012,31954,22113,0
408,101750,22998,32169,21900,0
409,102000,22981,32385,21709,0
410,102250,22961,32601,21542,0
411,102500,22938,32817,21400,0
412,102750,22913,33030,21281,0
413,103000,22886,33240,21187,0
414,103250,22857,33445,21119,0
415,103500,22826,33644,21080,0
416,103750,22793,33836,21068,0
417,104000,22759,34019,21080,0
418,104250,22723,34192,21120,0
419,104500,22686,34355,21187,0
420,104750,22648,34507,21281,0
421,105000,22610,34645,21399,0
422,105250,22571,34770,21541,0
423,105500,22532,34880,21708,0
424,105750,22493,34976,21899,0
425,106000,22455,35057,22111,0
426,106250,22417,35120,22342,0
427,106500,22380,35168,22593,0
428,106750,22344,35199,22862,0
429,107000,22309,35214,23147,0
430,107250,22276,35211,23444,0
431,107500,22244,35191,23755,0
432,107750,22214,35154,24076,0
433,108000,22186,35100,24405,0
434,108250,22161,35030,24738,0
435,108500,22137,34946,25079,0
436,108750,22116,34846,25422,0
437,109000,22098,34731,25765,0
438,109250,22083,34601,26102,0
439,109500,22071,34458,26436,0
440,109750,22061,34304,26767,0
441,110000,22054,34137,27088,0
442,110250,22051,33959,27396,0
443,110500,22051,33773,27694,0
444,110750,22053,33580,27980,0
445,111000,22058,33381,28251,0
446,111250,22067,33174,28502,0
447,111500,22078,32963,28733,0
448,111750,22093,32749,28945,0
449,112000,22110,32533,29136,0
450,112250,22130,32316,29302,0
451,112500,22152,32100,29444,0
452,112750,22177,31887,29562,0
453,113000,22204,31678,29658,0
454,113250,22233,31474,29726,0
455,113500,22264,31275,29766,0
456,113750,22297,31083,29779,0
457,114000,22331,30900,29767,0
458,114250,22367,30727,29727,0
459,114500,22404,30563,29659,0
460,114750,22442,30411,29565,0
461,115000,22480,30273,29448,0
462,115250,22519,30148,29307,0
463,115500,22557,30038,29140,0
464,115750,22596,29941,28949,0
465,116000,22635,29861,28738,0
466,116250,22673,29797,28507,0
467,116500,22710,29748,28256,0
468,116750,22746,29717,27987,0
469,117000,22781,29702,27703,0
470,117250,22814,29705,27406,0
471,117500,22846,29725,27095,0
472,117750,22876,29761,26773,0
473,118000,22904,29814,26444,0
474,118250,22929,29885,26110,0
475,118500,22953,29969,25770,0
476,118750,22974,30069,25426,0
477,119000,22992,30185,25084,0
478,119250,23007,30314,24746,0
479,119500,23020,30457,24411,0
480,119750,23029,30612,24080,0
481,120000,23036,30778,23759,0
482,120250,23039,30956,23449,0
483,120500,23040,31142,23151,0
484,120750,23038,31335,22865,0
485,121000,23032,31536,22595,0
486,121250,23024,31742,22344,0
487,121500,23012,31954,22113,0
488,121750,22998,32169,21901,0
489,122000,22981,32385,21709,0
490,122250,22961,32601,21542,0
491,122500,22938,32817,21400,0
492,122750,22913,33030,21281,0
493,123000,22886,33240,21187,0
494,123250,22857,33445,21119,0
495,123500,22826,33644,21081,0
496,123750,22793,33836,21068,0
497,124000,22759,34019,21080,0
498,124250,22723,34192,21119,0
499,124500,22686,34356,21187,0
500,124750,22648,34507,21281,0
501,125000,22610,34645,21399,0
502,125250,22571,34770,21541,0
503,125500,22532,34880,21708,0
504,125750,22493,34976,21900,0
505,126000,22455,35057,22111,0
506,126250,22417,35121,22342,0
507,126500,22380,35169,22593,0
508,126750,22344,35200,22862,0
509,127000,22309,35214,23147,0
510,127250,22276,35211,23444,0
511,127500,22244,35191,23754,0
512,127750,22214,35154,24076,0
513,128000,22186,35100,24405,0
514,128250,22161,35030,24739,0
515,128500,22137,34946,25079,0
516,128750,22116,34846,25422,0
517,129000,22098,34731,25764,0
518,129250,22083,34601,26102,0
519,129500,22071,34458,26437,0
520,129750,22061,34304,26767,0
521,130000,22054,34137,27088,0
522,130250,22051,33959,27397,0
523,130500,22051,33774,27694,0
524,130750,22053,33581,27981,0
525,131000,22058,33381,28251,0
526,131250,22067,33174,28502,0
527,131500,22078,32963,28733,0
528,131750,22093,32749,28945,0
529,132000,22110,32533,29135,0
530,132250,22130,32316,29302,0
531,132500,22152,32100,29444,0
532,132750,22177,31888,29563,0
533,133000,22204,31678,29658,0
534,133250,22233,31474,29725,0
535,133500,22264,31275,29765,0
536,133750,22297,31083,29779,0
537,134000,22331,30900,29766,0
538,134250,22367,30726,29727,0
539,134500,22404,30563,29659,0
540,134750,22442,30412,29565,0
541,135000,22480,30273,29448,0
542,135250,22519,30148,29307,0
543,135500,22557,30038,29140,0
544,135750,22596,29941,28949,0
545,136000,22635,29861,28738,0
546,136250,22673,29797,28507,0
547,136500,22710,29748,28256,0
548,136750,22746,29717,27987,0
549,137000,22781,29703,27703,0
550,137250,22814,29705,27406,0
551,137500,22846,29725,27095,0
552,137750,22876,29761,26773,0
553,138000,22904,29815,26444,0
554,138250,22929,29885,26111,0
555,138500,22953,29969,25770,0
556,138750,22974,30069,25427,0
557,139000,22992,30184,25084,0
558,139250,23007,30315,24746,0
559,139500,23020,30457,24411,0
560,139750,23029,30612,24080,0
561,140000,23036,30778,23758,0
562,140250,23039,30956,23449,0
563,140500,23040,31142,23152,0
564,140750,23038,31336,22865,0
565,141000,23032,31536,22594,0
566,141250,23024,31743,22343,0
567,141500,23012,31954,22111,0
568,141750,22998,32169,21900,0
569,142000,22981,32384,21709,0
570,142250,22961,32601,21542,0
571,142500,22938,32817,21400,0
572,142750,22913,33031,21281,0
573,143000,22886,33240,21187,0
574,143250,22857,33445,21120,0
575,143500,22826,33644,21079,0
576,143750,22793,33836,21067,0
577,144000,22759,34019,21079,0
578,144250,22723,34192,21120,0
579,144500,22686,34355,21188,0
580,144750,22648,34507,21282,0
581,145000,22610,34645,21399,0
582,145250,22571,34770,21541,0
583,145500,22532,34880,21708,0
584,145750,22493,34976,21899,0
585,146000,22455,35057,22111,0
586,146250,22417,35120,22342,0
587,146500,22380,35168,22593,0
588,146750,22344,35199,22863,0
589,147000,22309,35214,23147,0
590,147250,22276,35211,23444,0
591,147500,22244,35191,23755,0
592,147750,22214,35154,24076,0
593,148000,22186,35101,24404,0
594,148250,22161,35031,24738,0
595,148500,22137,34946,25079,0
596,148750,22116,34846,25423,0
597,149000,22098,34731,25764,0
598,149250,22083,34601,26102,0
599,149500,22071,34458,26437,0
600,149750,22061,34304,26767,0
601,150000,22054,34137,27088,0
602,150250,22051,33959,27397,0
603,150500,22051,33774,27695,0
604,150750,22053,33581,27981,0
605,151000,22058,33381,28251,0
606,151250,22067,33174,28502,0
607,151500,22078,32963,28733,0
608,151750,22093,32749,28945,0
609,152000,22110,32533,29135,0
610,152250,22130,32316,29302,0
611,152500,22152,32100,29444,0
612,152750,22177,31887,29563,0
613,153000,22204,31678,29658,0
614,153250,22233,31474,29725,0
615,153500,22264,31275,29765,0
616,153750,22297,31083,29778,0
617,154000,22331,30900,29766,0
618,154250,22367,30726,29726,0
619,154500,22404,30563,29658,0
620,154750,22442,30411,29566,0
621,155000,22480,30273,29449,0
622,155250,22519,30148,29307,0
623,155500,22557,30038,29140,0
624,155750,22596,29941,28949,0
625,156000,22635,29861,28738,0
626,156250,22673,29797,28507,0
627,156500,22710,29748,28256,0
628,156750,22746,29717,27987,0
629,157000,22781,29702,27703,0
630,157250,22814,29705,27406,0
631,157500,22846,29725,27095,0
632,157750,22876,29761,26773,0
633,158000,22904,29814,26444,0
634,158250,22929,29885,26111,0
635,158500,22953,29969,25770,0
636,158750,22974,30069,25427,0
637,159000,22992,30184,25084,0
638,159250,23007,30315,24746,0
639,159500,23020,30457,24411,0
640,159750,23029,30612,24080,0
641,160000,23036,30778,23758,0
642,160250,23039,30956,23449,0
643,160500,23040,31142,23152,0
644,160750,23038,31336,22865,0
645,161000,23032,31536,22594,0
646,161250,23024,31742,22344,0
647,161500,23012,31954,22113,0
648,161750,22998,32169,21900,0
649,162000,22981,32385,21709,0
650,162250,22961,32601,21542,0
651,162500,22938,32817,21400,0
652,162750,22913,33031,21282,0
653,163000,22886,33240,21187,0
