RTDS Simulation, 0,1999
10,9A,1D
1,IAvnCT,,,Amps,1.37357E-4,-4.57186,0,0,65535,1.0,1.0,P
2,IBvnCT,,,Amps,1.65159E-4,-5.41394,0,0,65535,1.0,1.0,P
3,ICvnCT,,,Amps,1.34806E-4,-4.41836,0,0,65535,1.0,1.0,P
4,IAsnCT,,,Amps,2.44936E-4,-8.02903,0,0,65535,1.0,1.0,P
5,IBsnCT,,,Amps,1.6162E-4,-5.2987,0,0,65535,1.0,1.0,P
6,ICsnCT,,,Amps,1.65645E-4,-5.43541,0,0,65535,1.0,1.0,P
7,IAnnCT,,,Amps,1.5806E-5,-0.532103,0,0,65535,1.0,1.0,P
8,IBnnCT,,,Amps,1.55055E-5,-0.508328,0,0,65535,1.0,1.0,P
9,ICnnCT,,,Amps,2.29615E-5,-0.751328,0,0,65535,1.0,1.0,P
1,LG_FLT,0,,0
50.0
1
1000.0,2000
02/03/2020,16:33:16.489000
02/03/2020,16:33:17.489000
ASCII
1
1,0,8345,58303,26887,47259,8231,35368,2414,53157,40474,0
2,1000,3131,54249,37418,49740,12863,27103,2366,44444,46391,0
3,2000,814,48044,47474,50555,19479,19414,5400,34589,50957,0
4,3000,1674,40310,55881,49632,27428,13082,11188,24541,53759,0
5,4000,5618,31813,62014,47061,35896,8703,19183,15283,54507,0
6,5000,12292,23419,65353,43084,44029,6692,28586,7746,53124,0
7,6000,21047,16064,65535,38092,51014,7231,38507,2704,49700,0
8,7000,31009,10429,62538,32584,56189,10247,47973,508,44666,0
9,8000,41198,6913,56651,27116,59075,15460,56032,1513,38440,0
10,9000,50539,5872,48405,22225,59408,22369,61801,5698,31642,0
11,10000,58041,7432,38620,18377,57179,30306,64988,12370,24943,0
12,11000,63203,11434,28229,15931,52591,38469,65019,21130,19007,0
13,12000,65535,17540,18291,15113,46063,46072,61951,31027,14435,0
14,13000,64759,25169,9929,15995,38217,52362,56123,41097,11646,0
15,14000,60943,33596,3759,18501,29828,56759,48091,50355,10924,0
16,15000,54397,41975,316,22411,21723,58840,38670,57867,12336,0
17,16000,45722,49356,0,27358,14710,58402,28758,62870,15781,0
18,17000,35754,55066,2877,32861,9457,55479,19322,65022,20823,0
19,18000,25476,58684,8700,38362,6476,50320,11302,63992,27039,0
20,19000,16025,59807,16957,43308,6064,43408,5568,59806,33813,0
21,20000,8438,58277,26825,47212,8256,35413,2402,53153,40485,0
22,21000,3213,54247,37337,49697,12866,27162,2363,44432,46401,0
23,22000,878,48067,47382,50522,19460,19482,5403,34573,50966,0
24,23000,1714,40355,55785,49611,27388,13153,11194,24525,53765,0
25,24000,5631,31874,61925,47054,35839,8769,19193,15267,54511,0
26,25000,12275,23492,65280,43092,43961,6746,28599,7732,53124,0
27,26000,21002,16143,65485,38114,50942,7268,38522,2684,49702,0
28,27000,30941,10504,62516,32618,56120,10264,47989,499,44661,0
29,28000,41113,6978,56659,27159,59015,15455,56047,1512,38430,0
30,29000,50446,5919,48442,22272,59363,22342,61813,5702,31632,0
31,30000,57950,7457,38682,18423,57155,30260,64996,12379,24932,0
32,31000,63122,11435,28310,15973,52589,38410,65022,21142,18996,0
33,32000,65472,17518,18383,15145,46084,46004,61949,31042,14426,0
34,33000,64722,25124,10023,16015,38258,52293,56116,41114,11640,0
35,34000,60932,33534,3845,18508,29885,56694,48081,50371,10920,0
36,35000,54415,41902,387,22402,21790,58787,38657,57881,12336,0
37,36000,45768,49279,48,27336,14781,58365,28742,62881,15784,0
38,37000,35822,54993,2898,32827,9526,55462,19306,65029,20829,0
39,38000,25559,58620,8692,38320,6535,50325,11288,63994,27048,0
40,39000,16118,59760,16921,43261,6108,43434,5556,59804,33823,0
41,40000,8530,58252,26763,47166,8281,35457,2394,53145,40496,0
42,41000,3295,54245,37256,49656,12869,27221,2360,44420,46412,0
43,42000,942,48089,47289,50489,19440,19549,5405,34558,50975,0
44,43000,1754,40399,55690,49590,27348,13223,11200,24509,53772,0
45,44000,5643,31936,61837,47047,35782,8834,19204,15251,54514,0
46,45000,12257,23565,65208,43100,43894,6800,28613,7717,53125,0
47,46000,20956,16220,65436,38136,50871,7304,38538,2669,49702,0
48,47000,30873,10578,62495,32652,56051,10281,48004,491,44656,0
49,48000,41028,7042,56666,27202,58955,15450,56061,1511,38421,0
50,49000,50353,5966,48478,22319,59319,22316,61825,5704,31622,0
51,50000,57858,7481,38744,18470,57132,30215,65004,12387,24921,0
52,51000,63041,11435,28390,16014,52587,38350,65025,21155,18985,0
53,52000,65409,17495,18475,15178,46104,45937,61947,31058,14417,0
54,53000,64683,25079,10117,16035,38299,52223,56110,41132,11632,0
55,54000,60921,33473,3932,18514,29941,56630,48070,50387,10917,0
56,55000,54432,41830,458,22394,21856,58734,38643,57896,12335,0
57,56000,45811,49203,96,27314,14851,58329,28727,62898,15783,0
58,57000,35888,54919,2919,32794,9594,55445,19291,65038,20834,0
59,58000,25642,58556,8684,38278,6595,50329,11273,63996,27057,0
60,59000,16209,59713,16885,43215,6153,43459,5544,59801,33833,0
61,60000,8620,58226,26702,47119,8306,35501,2386,53137,40507,0
62,61000,3376,54243,37176,49614,12871,27280,2356,44408,46422,0
63,62000,1005,48111,47197,50456,19421,19617,5406,34543,50985,0
64,63000,1793,40443,55595,49569,27308,13292,11206,24491,53779,0
65,64000,5654,31998,61749,47041,35726,8899,19214,15235,54518,0
66,65000,12239,23638,65136,43109,43827,6854,28627,7702,53125,0
67,66000,20911,16298,65387,38158,50799,7341,38553,2657,49699,0
68,67000,30805,10652,62473,32686,55982,10297,48020,484,44650,0
69,68000,40943,7105,56674,27244,58895,15445,56075,1509,38413,0
70,69000,50260,6013,48515,22366,59275,22290,61836,5708,31611,0
71,70000,57767,7506,38805,18516,57108,30170,65011,12395,24910,0
72,71000,62960,11436,28470,16055,52585,38291,65028,21167,18975,0
73,72000,65346,17472,18565,15210,46124,45870,61945,31072,14408,0
74,73000,64644,25035,10210,16055,38339,52154,56104,41148,11626,0
75,74000,60909,33412,4017,18520,29997,56566,48060,50402,10913,0
76,75000,54449,41758,527,22386,21923,58682,38630,57910,12334,0
77,76000,45855,49127,143,27292,14922,58292,28712,62909,15786,0
78,77000,35954,54847,2940,32760,9662,55429,19276,65044,20840,0
79,78000,25724,58494,8676,38236,6653,50334,11259,63998,27065,0
80,79000,16300,59667,16848,43168,6196,43485,5532,59798,33843,0
81,80000,8710,58201,26641,47073,8330,35545,2378,53130,40518,0
82,81000,3456,54241,37096,49573,12874,27339,2353,44396,46433,0
83,82000,1068,48133,47106,50423,19402,19684,5408,34528,50993,0
84,83000,1831,40487,55500,49549,27269,13362,11213,24475,53786,0
85,84000,5665,32059,61662,47034,35670,8963,19225,15219,54521,0
86,85000,12221,23711,65064,43117,43760,6907,28640,7688,53125,0
87,86000,20866,16375,65338,38180,50728,7378,38568,2646,49696,0
88,87000,30737,10726,62452,32720,55914,10314,48036,477,44643,0
89,88000,40860,7168,56683,27286,58837,15440,56090,1507,38404,0
90,89000,50169,6058,48553,22412,59232,22263,61848,5711,31601,0
91,90000,57677,7530,38867,18562,57084,30125,65019,12403,24899,0
92,91000,62881,11437,28551,16096,52583,38233,65032,21178,18965,0
93,92000,65284,17449,18656,15242,46144,45803,61943,31087,14400,0
94,93000,64606,24991,10303,16075,38378,52086,56097,41163,11620,0
95,94000,60899,33351,4103,18526,30052,56503,48050,50417,10910,0
96,95000,54467,41686,598,22378,21988,58629,38617,57924,12334,0
97,96000,45899,49050,192,27270,14992,58256,28697,62915,15792,0
98,97000,36021,54773,2961,32727,9729,55412,19260,65049,20847,0
99,98000,25806,58432,8669,38195,6711,50339,11245,64000,27073,0
100,99000,16390,59621,16813,43123,6239,43510,5520,59795,33854,0
101,100000,8800,58175,26581,47028,8355,35589,2370,53122,40528,0
102,101000,3537,54239,37017,49531,12877,27397,2350,44385,46442,0
103,102000,1131,48154,47016,50391,19383,19751,5410,34514,51001,0
104,103000,1871,40529,55408,49528,27230,13430,11219,24461,53792,0
105,104000,5676,32118,61577,47028,35615,9027,19235,15204,54525,0
106,105000,12204,23782,64994,43125,43693,6960,28654,7675,53125,0
107,106000,20821,16450,65291,38202,50658,7414,38584,2635,49693,0
108,107000,30670,10798,62432,32754,55846,10330,48051,471,44637,0
109,108000,40777,7230,56693,27328,58779,15434,56104,1506,38395,0
110,109000,50078,6103,48590,22458,59189,22237,61860,5714,31591,0
111,110000,57587,7554,38929,18608,57061,30080,65026,12411,24889,0
112,111000,62801,11437,28631,16137,52582,38175,65034,21190,18955,0
113,112000,65222,17426,18749,15274,46164,45736,61941,31101,14392,0
114,113000,64568,24947,10396,16095,38418,52018,56091,41179,11614,0
115,114000,60888,33291,4188,18532,30108,56440,48040,50432,10907,0
116,115000,54484,41615,667,22369,22054,58578,38604,57937,12335,0
117,116000,45943,48975,239,27249,15062,58220,28682,62926,15795,0
118,117000,36087,54701,2982,32694,9796,55396,19245,65056,20853,0
119,118000,25888,58370,8662,38153,6769,50344,11231,64002,27081,0
120,119000,16480,59576,16778,43077,6282,43536,5519,59781,33863,0
121,120000,8890,58150,26521,46982,8379,35633,2361,53115,40539,0
122,121000,3617,54237,36939,49491,12880,27454,2346,44373,46452,0
123,122000,1193,48176,46926,50358,19364,19817,5411,34500,51010,0
124,123000,1910,40572,55316,49508,27191,13499,11225,24445,53798,0
125,124000,5688,32179,61491,47021,35559,9091,19245,15188,54528,0
126,125000,12186,23854,64925,43133,43627,7012,28667,7662,53125,0
127,126000,20777,16527,65243,38225,50586,7451,38599,2626,49689,0
128,127000,30603,10871,62412,32787,55778,10346,48067,466,44630,0
129,128000,40695,7291,56702,27370,58722,15428,56118,1505,38386,0
130,129000,49989,6147,48627,22504,59147,22210,61864,5725,31580,0
131,130000,57498,7578,38990,18653,57037,30036,65037,12417,24878,0
132,131000,62722,11438,28710,16177,52580,38117,65037,21202,18946,0
133,132000,65162,17403,18838,15305,46184,45670,61939,31115,14384,0
134,133000,64530,24904,10486,16115,38457,51951,56085,41192,11609,0
135,134000,60877,33231,4272,18538,30162,56378,48029,50447,10904,0
136,135000,54502,41544,736,22361,22119,58526,38591,57949,12335,0
137,136000,45987,48900,286,27227,15130,58185,28668,62941,15795,0
138,137000,36152,54630,3002,32661,9862,55380,19230,65063,20859,0
139,138000,25971,58307,8654,38112,6827,50348,11217,64002,27091,0
140,139000,16570,59529,16742,43031,6326,43561,5508,59779,33873,0
141,140000,8978,58126,26461,46937,8402,35677,2353,53108,40549,0
142,141000,3696,54235,36859,49450,12882,27512,2343,44361,46463,0
143,142000,1255,48198,46836,50327,19344,19883,5413,34485,51019,0
144,143000,1948,40616,55223,49488,27151,13567,11231,24428,53805,0
145,144000,5699,32239,61405,47015,35504,9154,19255,15172,54532,0
146,145000,12169,23925,64854,43142,43561,7064,28681,7647,53125,0
147,146000,20732,16603,65195,38247,50516,7487,38614,2615,49686,0
148,147000,30537,10943,62391,32821,55711,10362,48082,460,44623,0
149,148000,40613,7352,56711,27412,58664,15423,56132,1503,38378,0
150,149000,49899,6192,48665,22550,59105,22184,61876,5729,31570,0
151,150000,57409,7602,39051,18698,57015,29992,65044,12425,24868,0
152,151000,62644,11439,28789,16217,52578,38059,65040,21213,18936,0
153,152000,65102,17381,18928,15337,46204,45604,61937,31129,14376,0
154,153000,64494,24861,10578,16135,38496,51883,56078,41208,11603,0
155,154000,60867,33172,4356,18544,30217,56315,48019,50462,10901,0
156,155000,54520,41474,805,22353,22184,58475,38578,57962,12335,0
157,156000,46031,48825,333,27205,15200,58150,28653,62947,15801,0
158,157000,36218,54558,3023,32628,9929,55364,19215,65068,20866,0
159,158000,26051,58247,8645,38071,6883,50353,11204,64005,27098,0
160,159000,16659,59485,16706,42986,6368,43587,5496,59775,33883,0
161,160000,9067,58101,26401,46892,8426,35720,2346,53100,40560,0
162,161000,3775,54233,36781,49410,12885,27569,2340,44350,46473,0
163,162000,1317,48220,46744,50295,19325,19950,5415,34472,51027,0
164,163000,1987,40659,55131,49468,27113,13634,11237,24414,53811,0
165,164000,5710,32299,61320,47009,35449,9217,19266,15157,54535,0
166,165000,12152,23996,64785,43150,43496,7116,28694,7635,53125,0
167,166000,20689,16678,65148,38269,50447,7522,38629,2604,49682,0
168,167000,30471,11015,62371,32854,55644,10378,48098,453,44617,0
169,168000,40531,7413,56719,27453,58607,15417,56146,1502,38369,0
170,169000,49810,6236,48701,22595,59063,22158,61887,5732,31560,0
171,170000,57322,7625,39112,18743,56992,29948,65051,12433,24857,0
172,171000,62566,11440,28867,16257,52577,38001,65043,21225,18926,0
173,172000,65042,17358,19017,15368,46223,45539,61935,31143,14368,0
174,173000,64457,24818,10668,16154,38535,51816,56072,41223,11597,0
175,174000,60858,33112,4439,18550,30271,56253,48009,50477,10898,0
176,175000,54538,41404,872,22345,22249,58424,38565,57975,12336,0
177,176000,46075,48751,379,27184,15268,58114,28638,62958,15804,0
178,177000,36283,54488,3043,32596,9995,55348,19200,65074,20872,0
179,178000,26132,58187,8637,38030,6940,50358,11190,64006,27107,0
180,179000,16748,59441,16671,42941,6410,43612,5485,59773,33893,0
181,180000,9155,58077,26342,46847,8449,35763,2338,53092,40570,0
182,181000,3854,54232,36704,49369,12887,27626,2336,44339,46482,0
183,182000,1378,48241,46655,50263,19306,20015,5416,34457,51035,0
184,183000,2025,40701,55040,49448,27074,13702,11243,24398,53817,0
185,184000,5721,32359,61237,47003,35394,9279,19276,15142,54538,0
186,185000,12134,24067,64716,43158,43431,7168,28707,7621,53125,0
187,186000,20644,16753,65102,38290,50377,7557,38644,2594,49679,0
188,187000,30404,11087,62352,32887,55578,10394,48113,447,44611,0
189,188000,40449,7474,56729,27494,58550,15412,56160,1500,38361,0
190,189000,49720,6280,48738,22640,59021,22132,61898,5736,31550,0
191,190000,57233,7649,39172,18788,56969,29904,65059,12441,24847,0
192,191000,62488,11440,28946,16297,52575,37944,65046,21237,18916,0
193,192000,64981,17336,19105,15399,46243,45474,61933,31157,14360,0
194,193000,64420,24775,10759,16173,38574,51750,56066,41238,11591,0
195,194000,60847,33053,4523,18556,30326,56192,47999,50492,10895,0
196,195000,54555,41335,940,22336,22313,58373,38552,57988,12336,0
197,196000,46118,48677,425,27163,15337,58080,28624,62969,15807,0
198,197000,36347,54417,3064,32563,10060,55332,19185,65080,20878,0
199,198000,26212,58127,8629,37990,6997,50363,11176,64008,27115,0
200,199000,16836,59396,16635,42897,6452,43637,5474,59769,33903,0
201,200000,9242,58053,26282,46803,8473,35806,2331,53085,40581,0
202,201000,3931,54231,36626,49329,12889,27683,2333,44328,46492,0
203,202000,1439,48263,46566,50232,19287,20080,5418,34443,51044,0
204,203000,2062,40744,54948,49428,27035,13769,11249,24383,53823,0
205,204000,5731,32418,61152,46997,35340,9342,19286,15127,54541,0
206,205000,12117,24137,64648,43166,43366,7219,28720,7608,53125,0
207,206000,20600,16828,65055,38312,50308,7593,38659,2583,49676,0
208,207000,30339,11158,62332,32920,55512,10409,48128,441,44604,0
209,208000,40369,7534,56737,27535,58493,15406,56173,1499,38352,0
210,209000,49632,6324,48774,22685,58979,22106,61909,5739,31540,0
211,210000,57146,7672,39232,18832,56947,29860,65066,12449,24836,0
212,211000,62412,11441,29023,16337,52574,37887,65049,21248,18906,0
213,212000,64922,17314,19193,15429,46263,45409,61931,31171,14351,0
214,213000,64384,24733,10848,16192,38613,51684,56059,41253,11585,0
215,214000,60837,32995,4604,18561,30380,56131,47989,50507,10891,0
216,215000,54572,41265,1007,22328,22377,58323,38539,58001,12336,0
217,216000,46161,48604,470,27141,15405,58045,28609,62979,15810,0
218,217000,36412,54347,3083,32531,10125,55317,19171,65087,20884,0
219,218000,26292,58067,8621,37950,7053,50368,11163,64010,27123,0
220,219000,16924,59352,16600,42852,6493,43662,5463,59767,33912,0
221,220000,9330,58029,26222,46759,8496,35849,2323,53077,40591,0
222,221000,4009,54230,36548,49290,12891,27739,2330,44316,46502,0
223,222000,1499,48285,46478,50200,19268,20145,5422,34429,51050,0
224,223000,2100,40787,54858,49408,26997,13835,11256,24368,53829,0
225,224000,5742,32477,61069,46991,35286,9403,19296,15112,54545,0
226,225000,12099,24207,64579,43174,43301,7270,28733,7594,53125,0
227,226000,20556,16902,65009,38334,50240,7627,38674,2573,49673,0
228,227000,30273,11228,62312,32953,55447,10424,48143,435,44598,0
229,228000,40288,7595,56746,27576,58437,15401,56187,1497,38344,0
230,229000,49544,6368,48810,22730,58938,22080,61920,5743,31530,0
231,230000,57059,7695,39292,18876,56924,29817,65073,12457,24826,0
232,231000,62334,11441,29100,16376,52573,37830,65051,21259,18896,0
233,232000,64863,17292,19280,15460,46283,45344,61927,31185,14345,0
234,233000,64347,24690,10937,16212,38651,51618,56052,41268,11580,0
235,234000,60827,32936,4686,18567,30433,56070,47979,50522,10888,0
236,235000,54589,41197,1073,22320,22441,58273,38526,58014,12336,0
237,236000,46203,48531,515,27120,15472,58011,28595,62990,15813,0
238,237000,36476,54278,3102,32499,10190,55301,19156,65093,20890,0
239,238000,26371,58007,8612,37909,7108,50373,11149,64011,27131,0
240,239000,17010,59309,16564,42808,6535,43687,5452,59763,33922,0
241,240000,9415,58006,26163,46715,8519,35891,2316,53070,40601,0
242,241000,4085,54229,36471,49250,12893,27796,2327,44305,46512,0
243,242000,1558,48306,46390,50169,19249,20209,5424,34416,51058,0
244,243000,2136,40829,54767,49389,26958,13902,11262,24352,53835,0
245,244000,5752,32536,60985,46985,35232,9465,19307,15097,54547,0
246,245000,12080,24276,64512,43183,43237,7320,28747,7581,53124,0
247,246000,20512,16976,64963,38355,50171,7662,38690,2569,49664,0
248,247000,30207,11299,62292,32986,55381,10440,48158,431,44591,0
249,248000,40207,7654,56755,27616,58382,15395,56200,1495,38336,0
250,249000,49456,6411,48846,22774,58898,22054,61930,5746,31521,0
251,250000,56972,7718,39351,18920,56902,29774,65080,12465,24816,0
252,251000,62258,11442,29177,16415,52571,37774,65053,21271,18888,0
253,252000,64803,17269,19367,15490,46302,45280,61924,31198,14338,0
254,253000,64310,24648,11025,16230,38689,51553,56046,41282,11574,0
255,254000,60817,32878,4768,18573,30487,56009,47968,50536,10886,0
256,255000,54607,41128,1140,22312,22504,58224,38513,58026,12337,0
257,256000,46246,48458,561,27099,15539,57977,28580,63000,15815,0
258,257000,36540,54208,3122,32467,10254,55286,19141,65099,20896,0
259,258000,26450,57948,8605,37869,7164,50378,11136,64013,27140,0
260,259000,17097,59265,16530,42764,6576,43712,5441,59761,33931,0
261,260000,9502,57982,26105,46671,8541,35934,2308,53062,40611,0
262,261000,4162,54227,36395,49211,12896,27851,2324,44294,46522,0
263,262000,1618,48327,46304,50138,19230,20273,5426,34402,51066,0
264,263000,2174,40871,54676,49369,26920,13968,11261,24337,53846,0
265,264000,5763,32595,60902,46978,35178,9527,19317,15082,54550,0
266,265000,12062,24345,64446,43191,43174,7369,28762,7568,53123,0
267,266000,20469,17048,64918,38377,50103,7697,38706,2559,49660,0
268,267000,30143,11368,62273,33018,55316,10455,48172,425,44585,0
269,268000,40128,7713,56764,27657,58326,15390,56212,1494,38329,0
270,269000,49369,6453,48882,22818,58857,22028,61940,5749,31512,0
271,270000,56887,7740,39411,18964,56880,29731,65086,12473,24806,0
272,271000,62183,11442,29253,16454,52570,37718,65055,21282,18879,0
273,272000,64745,17247,19454,15521,46322,45216,61921,31212,14331,0
274,273000,64275,24606,11115,16249,38728,51488,56043,41297,11566,0
275,274000,60807,32820,4850,18578,30540,55949,47957,50551,10884,0
276,275000,54625,41060,1205,22303,22566,58175,38499,58039,12338,0
277,276000,46289,48386,605,27078,15606,57943,28565,63010,15819,0
278,277000,36604,54139,3142,32435,10319,55270,19127,65105,20902,0
279,278000,26528,57889,8597,37830,7219,50383,11123,64014,27147,0
280,279000,17184,59222,16495,42720,6617,43737,5430,59758,33941,0
281,280000,9588,57959,26047,46627,8564,35976,2301,53055,40621,0
282,281000,4238,54226,36320,49172,12898,27907,2322,44283,46531,0
283,282000,1678,48350,46217,50108,19211,20337,5429,34388,51073,0
284,283000,2211,40914,54588,49350,26882,14034,11267,24322,53852,0
285,284000,5773,32654,60821,46973,35124,9588,19328,15067,54553,0
286,285000,12045,24414,64380,43199,43110,7419,28775,7555,53123,0
287,286000,20426,17122,64874,38398,50036,7731,38720,2549,49657,0
288,287000,30079,11438,62254,33051,55251,10470,48187,419,44579,0
289,288000,40049,7772,56773,27697,58271,15384,56226,1492,38320,0
290,289000,49283,6497,48919,22862,58817,22003,61951,5753,31502,0
291,290000,56802,7763,39471,19007,56859,29688,65094,12480,24796,0
292,291000,62108,11442,29329,16492,52569,37662,65057,21293,18869,0
293,292000,64687,17225,19540,15551,46342,45153,61918,31226,14323,0
294,293000,64240,24564,11203,16268,38766,51423,56037,41312,11560,0
