RTDS Simulation, 0,1999
10,9A,1D
1,IAvnCT,,,Amps,3.47755E-5,-0.339213,0,0,65535,1.0,1.0,P
2,IBvnCT,,,Amps,2.40258E-5,-0.248519,0,0,65535,1.0,1.0,P
3,ICvnCT,,,Amps,3.39052E-4,-21.5783,0,0,65535,1.0,1.0,P
4,IAsnCT,,,Amps,3.07395E-10,0.0,0,0,65535,1.0,1.0,P
5,IBsnCT,,,Amps,2.91711E-10,0.0,0,0,65535,1.0,1.0,P
6,ICsnCT,,,Amps,2.44475E-10,-1.60217E-5,0,0,65535,1.0,1.0,P
7,IAnnCT,,,Amps,8.01323E-13,-5.25147E-8,0,0,65535,1.0,1.0,P
8,IBnnCT,,,Amps,1.33275E-12,0.0,0,0,65535,1.0,1.0,P
9,ICnnCT,,,Amps,9.56868E-13,-6.27084E-8,0,0,65535,1.0,1.0,P
1,LG_FLT,0,,0
50.0
1
1000.0,2000
02/03/2020,16:16:11.313000
02/03/2020,16:16:12.313000
ASCII
1
1,0,9754,10343,63642,61924,35573,21920,13625,57234,10561,0
2,1000,9754,10343,63642,64384,37786,16186,13625,57233,10562,0
3,2000,9754,10343,63642,65535,41211,10653,13626,57233,10562,0
4,3000,9754,10343,63642,65264,45512,5860,13627,57232,10563,0
5,4000,9754,10343,63642,63598,50267,2279,13627,57231,10563,0
6,5000,9754,10343,63642,60700,55013,260,13628,57231,10563,0
7,6000,9754,10343,63642,56852,59284,0,13629,57230,10563,0
8,7000,9754,10344,63642,52432,62662,1525,13630,57230,10563,0
9,8000,9754,10344,63642,47873,64815,4686,13630,57230,10562,0
10,9000,9754,10344,63642,43620,65535,9175,13630,57231,10561,0
11,10000,9754,10344,63642,40090,64749,14551,13631,57231,10561,0
12,11000,9754,10344,63642,37629,62534,20288,13630,57232,10560,0
13,12000,9754,10343,63642,36477,59107,25824,13630,57233,10559,0
14,13000,9754,10343,63642,36747,54804,30618,13629,57233,10559,0
15,14000,9754,10343,63642,38413,50046,34201,13628,57234,10559,0
16,15000,9754,10343,63642,41310,45298,36221,13627,57234,10559,0
17,16000,9754,10343,63642,45156,41026,36481,13627,57235,10559,0
18,17000,9754,10343,63642,49573,37647,34957,13626,57235,10559,0
19,18000,9754,10343,63642,54130,35492,31798,13625,57235,10560,0
20,19000,9754,10343,63642,58380,34772,27312,13625,57235,10560,0
21,20000,9754,10343,63642,61908,35557,21939,13625,57234,10561,0
22,21000,9754,10343,63642,64368,37770,16205,13626,57233,10562,0
23,22000,9754,10343,63642,65519,41195,10671,13626,57233,10562,0
24,23000,9754,10343,63642,65249,45495,5879,13627,57232,10563,0
25,24000,9754,10343,63642,63583,50251,2298,13628,57231,10563,0
26,25000,9754,10343,63642,60684,54997,278,13628,57231,10563,0
27,26000,9754,10343,63642,56836,59268,18,13629,57230,10563,0
28,27000,9754,10344,63642,52416,62645,1543,13630,57230,10563,0
29,28000,9754,10344,63642,47857,64799,4705,13630,57230,10562,0
30,29000,9754,10344,63642,43604,65518,9193,13630,57231,10561,0
31,30000,9754,10344,63642,40074,64732,14569,13630,57231,10561,0
32,31000,9754,10344,63642,37613,62518,20306,13630,57232,10560,0
33,32000,9754,10343,63642,36462,59091,25843,13630,57233,10559,0
34,33000,9754,10343,63642,36732,54788,30637,13629,57233,10559,0
35,34000,9754,10343,63642,38397,50030,34219,13628,57234,10559,0
36,35000,9754,10343,63642,41294,45282,36240,13627,57234,10559,0
37,36000,9754,10343,63642,45140,41010,36500,13627,57235,10559,0
38,37000,9754,10343,63642,49557,37631,34976,13626,57235,10559,0
39,38000,9754,10343,63642,54113,35476,31817,13625,57235,10560,0
40,39000,9754,10343,63642,58364,34756,27330,13625,57235,10560,0
41,40000,9754,10343,63642,61893,35541,21957,13625,57234,10561,0
42,41000,9754,10343,63642,64353,37754,16223,13625,57233,10562,0
43,42000,9754,10343,63642,65503,41178,10690,13626,57233,10562,0
44,43000,9754,10343,63642,65233,45479,5897,13627,57232,10563,0
45,44000,9754,10343,63642,63567,50235,2316,13627,57231,10563,0
46,45000,9754,10343,63642,60668,54981,296,13628,57231,10563,0
47,46000,9754,10343,63642,56821,59252,36,13629,57230,10563,0
48,47000,9754,10344,63642,52401,62629,1561,13630,57230,10563,0
49,48000,9754,10344,63642,47841,64783,4723,13630,57230,10562,0
50,49000,9754,10344,63642,43588,65502,9212,13631,57231,10562,0
51,50000,9754,10344,63642,40058,64716,14588,13630,57231,10561,0
52,51000,9754,10344,63642,37598,62501,20325,13630,57232,10560,0
53,52000,9754,10343,63642,36446,59075,25861,13630,57233,10560,0
54,53000,9754,10343,63642,36716,54772,30655,13629,57233,10559,0
55,54000,9754,10343,63642,38381,50014,34238,13628,57234,10559,0
56,55000,9754,10343,63642,41279,45266,36258,13627,57235,10559,0
57,56000,9754,10343,63642,45124,40994,36518,13627,57235,10559,0
58,57000,9754,10343,63642,49542,37615,34994,13626,57235,10559,0
59,58000,9754,10343,63642,54098,35460,31835,13626,57235,10560,0
60,59000,9754,10343,63642,58349,34740,27349,13625,57235,10561,0
61,60000,9754,10343,63642,61877,35524,21975,13625,57234,10561,0
62,61000,9754,10343,63642,64337,37738,16242,13626,57233,10562,0
63,62000,9754,10343,63642,65488,41162,10708,13626,57233,10562,0
64,63000,9754,10343,63642,65217,45463,5916,13627,57232,10563,0
65,64000,9754,10343,63642,63552,50219,2334,13627,57231,10563,0
66,65000,9754,10343,63642,60653,54965,315,13628,57231,10563,0
67,66000,9754,10343,63642,56805,59235,55,13629,57230,10563,0
68,67000,9754,10344,63642,52385,62613,1580,13630,57230,10563,0
69,68000,9754,10344,63642,47826,64767,4741,13630,57230,10562,0
70,69000,9754,10344,63642,43573,65486,9230,13630,57231,10561,0
71,70000,9754,10344,63642,40043,64700,14606,13631,57231,10561,0
72,71000,9754,10344,63642,37582,62485,20343,13630,57232,10560,0
73,72000,9754,10343,63642,36430,59059,25879,13630,57232,10559,0
74,73000,9754,10343,63642,36701,54756,30674,13629,57233,10559,0
75,74000,9754,10343,63642,38366,49998,34256,13628,57234,10559,0
76,75000,9754,10343,63642,41263,45250,36277,13627,57235,10559,0
77,76000,9754,10343,63642,45109,40977,36537,13627,57235,10559,0
78,77000,9754,10343,63642,49526,37599,35013,13626,57235,10559,0
79,78000,9754,10343,63642,54083,35444,31853,13625,57235,10560,0
80,79000,9754,10343,63642,58333,34723,27367,13625,57235,10561,0
81,80000,9754,10343,63642,61861,35508,21994,13625,57234,10561,0
82,81000,9754,10343,63642,64321,37721,16260,13626,57233,10562,0
83,82000,9754,10343,63642,65472,41146,10726,13626,57233,10562,0
84,83000,9754,10343,63642,65202,45447,5934,13627,57232,10563,0
85,84000,9754,10343,63642,63536,50203,2353,13627,57231,10563,0
86,85000,9754,10343,63642,60637,54948,333,13628,57231,10563,0
87,86000,9754,10343,63642,56789,59219,73,13629,57230,10563,0
88,87000,9754,10344,63642,52370,62597,1598,13630,57230,10563,0
89,88000,9754,10344,63642,47810,64750,4760,13630,57230,10562,0
90,89000,9754,10344,63642,43557,65470,9248,13631,57231,10562,0
91,90000,9754,10344,63642,40027,64684,14625,13630,57231,10561,0
92,91000,9754,10344,63642,37566,62469,20362,13630,57232,10560,0
93,92000,9754,10343,63642,36415,59042,25898,13630,57233,10560,0
94,93000,9754,10343,63642,36685,54740,30692,13629,57233,10559,0
95,94000,9754,10343,63642,38350,49981,34275,13628,57234,10559,0
96,95000,9754,10343,63642,41247,45234,36295,13627,57234,10559,0
97,96000,9754,10343,63642,45093,40961,36555,13627,57235,10559,0
98,97000,9754,10343,63642,49510,37582,35031,13626,57235,10559,0
99,98000,9754,10343,63642,54067,35427,31871,13625,57235,10560,0
100,99000,9754,10343,63642,58318,34707,27386,13625,57235,10560,0
101,100000,9754,10343,63642,61846,35492,22013,13625,57234,10561,0
102,101000,9754,10343,63642,64306,37705,16279,13626,57233,10562,0
103,102000,9754,10343,63642,65457,41130,10745,13626,57233,10562,0
104,103000,9754,10343,63642,65186,45430,5953,13627,57232,10563,0
105,104000,9754,10343,63642,63520,50186,2371,13628,57231,10563,0
106,105000,9754,10343,63642,60622,54932,352,13628,57231,10563,0
107,106000,9754,10343,63642,56774,59203,92,13629,57230,10563,0
108,107000,9754,10344,63642,52354,62581,1617,13630,57230,10563,0
109,108000,9754,10344,63642,47795,64734,4778,13630,57230,10562,0
110,109000,9754,10344,63642,43542,65454,9267,13631,57231,10562,0
111,110000,9754,10344,63642,40011,64668,14643,13631,57231,10561,0
112,111000,9754,10344,63642,37551,62453,20380,13630,57232,10560,0
113,112000,9754,10343,63642,36399,59026,25916,13630,57232,10559,0
114,113000,9754,10343,63642,36669,54723,30711,13629,57233,10559,0
115,114000,9754,10343,63642,38334,49965,34293,13628,57234,10559,0
116,115000,9754,10343,63642,41232,45217,36313,13627,57234,10559,0
117,116000,9754,10343,63642,45077,40945,36574,13627,57235,10559,0
118,117000,9754,10343,63642,49495,37566,35049,13626,57235,10559,0
119,118000,9754,10343,63642,54051,35412,31890,13625,57235,10560,0
120,119000,9754,10343,63642,58302,34691,27404,13625,57235,10560,0
121,120000,9754,10343,63642,61830,35476,22031,13625,57234,10561,0
122,121000,9754,10343,63642,64290,37689,16297,13626,57233,10562,0
123,122000,9754,10343,63642,65441,41114,10763,13626,57233,10562,0
124,123000,9754,10343,63642,65171,45414,5971,13627,57232,10563,0
125,124000,9754,10343,63642,63505,50170,2390,13628,57231,10563,0
126,125000,9754,10343,63642,60606,54916,370,13628,57231,10563,0
127,126000,9754,10343,63642,56758,59187,110,13629,57230,10563,0
128,127000,9754,10344,63642,52339,62564,1635,13630,57230,10563,0
129,128000,9754,10344,63642,47779,64718,4797,13630,57230,10562,0
130,129000,9754,10344,63642,43526,65438,9285,13631,57231,10562,0
131,130000,9754,10344,63642,39996,64651,14661,13631,57231,10561,0
132,131000,9754,10344,63642,37535,62437,20398,13630,57232,10560,0
133,132000,9754,10343,63642,36383,59010,25935,13630,57232,10560,0
134,133000,9754,10343,63642,36654,54707,30729,13629,57233,10559,0
135,134000,9754,10343,63642,38319,49949,34312,13628,57234,10559,0
136,135000,9754,10343,63642,41216,45201,36332,13627,57234,10559,0
137,136000,9754,10343,63642,45062,40929,36592,13627,57235,10559,0
138,137000,9754,10343,63642,49479,37550,35068,13626,57235,10559,0
139,138000,9754,10343,63642,54035,35395,31909,13626,57235,10560,0
140,139000,9754,10343,63642,58286,34675,27423,13625,57235,10560,0
141,140000,9754,10343,63642,61815,35460,22049,13625,57234,10561,0
142,141000,9754,10343,63642,64275,37673,16315,13626,57233,10562,0
143,142000,9754,10343,63642,65425,41097,10782,13626,57233,10562,0
144,143000,9754,10343,63642,65155,45398,5989,13627,57232,10563,0
145,144000,9754,10343,63642,63489,50154,2408,13628,57231,10563,0
146,145000,9754,10343,63642,60590,54900,389,13628,57231,10563,0
147,146000,9754,10343,63642,56743,59171,129,13629,57230,10563,0
148,147000,9754,10344,63642,52323,62548,1654,13630,57230,10563,0
149,148000,9754,10344,63642,47764,64702,4815,13630,57230,10562,0
150,149000,9754,10344,63642,43510,65421,9304,13631,57231,10562,0
151,150000,9754,10344,63642,39980,64635,14680,13631,57231,10561,0
152,151000,9754,10344,63642,37519,62421,20417,13630,57232,10560,0
153,152000,9754,10343,63642,36368,58994,25953,13630,57232,10559,0
154,153000,9754,10343,63642,36638,54691,30747,13629,57233,10559,0
155,154000,9754,10343,63642,38303,49933,34330,13628,57234,10559,0
156,155000,9754,10343,63642,41201,45185,36350,13627,57234,10559,0
157,156000,9754,10343,63642,45046,40913,36611,13627,57235,10559,0
158,157000,9754,10343,63642,49463,37534,35086,13626,57235,10559,0
159,158000,9754,10343,63642,54020,35379,31927,13625,57235,10560,0
160,159000,9754,10343,63642,58271,34659,27441,13625,57234,10560,0
161,160000,9754,10343,63642,61799,35444,22068,13625,57234,10561,0
162,161000,9754,10343,63642,64259,37657,16334,13626,57233,10562,0
163,162000,9754,10343,63642,65410,41081,10800,13626,57233,10562,0
164,163000,9754,10343,63642,65139,45382,6008,13627,57232,10563,0
165,164000,9754,10343,63642,63474,50138,2427,13628,57231,10563,0
166,165000,9754,10343,63642,60575,54884,407,13628,57231,10563,0
167,166000,9754,10343,63642,56727,59154,147,13629,57230,10563,0
168,167000,9754,10344,63642,52307,62532,1672,13630,57230,10563,0
169,168000,9754,10344,63642,47748,64686,4833,13630,57230,10562,0
170,169000,9754,10344,63642,43495,65405,9322,13631,57231,10561,0
171,170000,9754,10344,63642,39965,64619,14698,13631,57231,10561,0
172,171000,9754,10344,63642,37504,62404,20435,13630,57232,10560,0
173,172000,9754,10343,63642,36352,58978,25972,13630,57232,10559,0
174,173000,9754,10343,63642,36622,54675,30766,13629,57233,10559,0
175,174000,9754,10343,63642,38288,49917,34349,13628,57234,10559,0
176,175000,9754,10343,63642,41185,45169,36369,13627,57234,10559,0
177,176000,9754,10343,63642,45031,40896,36629,13627,57235,10559,0
178,177000,9754,10343,63642,49448,37518,35105,13626,57235,10559,0
179,178000,9754,10343,63642,54005,35363,31945,13625,57235,10560,0
180,179000,9754,10343,63642,58255,34642,27459,13625,57234,10561,0
181,180000,9754,10343,63642,61783,35427,22086,13625,57234,10561,0
182,181000,9754,10343,63642,64243,37640,16352,13626,57233,10562,0
183,182000,9754,10343,63642,65394,41065,10819,13626,57233,10563,0
184,183000,9754,10343,63642,65124,45366,6026,13627,57232,10563,0
185,184000,9754,10343,63642,63458,50122,2445,13628,57231,10563,0
186,185000,9754,10343,63642,60559,54867,425,13628,57231,10563,0
187,186000,9754,10343,63642,56711,59138,165,13629,57230,10563,0
188,187000,9754,10344,63642,52292,62516,1691,13630,57230,10563,0
189,188000,9754,10344,63642,47732,64669,4852,13630,57230,10562,0
190,189000,9754,10344,63642,43479,65389,9341,13631,57230,10562,0
191,190000,9754,10344,63642,39949,64603,14717,13631,57231,10561,0
192,191000,9754,10344,63642,37488,62388,20454,13630,57232,10560,0
193,192000,9754,10343,63642,36337,58962,25990,13630,57232,10560,0
194,193000,9754,10343,63642,36607,54659,30784,13629,57233,10559,0
195,194000,9754,10343,63642,38272,49900,34367,13628,57234,10559,0
196,195000,9754,10343,63642,41169,45153,36387,13627,57234,10559,0
197,196000,9754,10343,63642,45015,40880,36648,13627,57235,10559,0
198,197000,9754,10343,63642,49432,37501,35123,13626,57235,10559,0
199,198000,9754,10343,63642,53988,35347,31964,13626,57235,10560,0
200,199000,9754,10343,63642,58239,34626,27478,13625,57234,10561,0
201,200000,9754,10343,63642,61768,35411,22105,13625,57234,10561,0
202,201000,9754,10343,63642,64228,37624,16371,13626,57233,10562,0
203,202000,9754,10343,63642,65378,41049,10837,13626,57233,10562,0
204,203000,9754,10343,63642,65108,45349,6045,13627,57232,10563,0
205,204000,9754,10343,63642,63443,50105,2463,13628,57231,10563,0
206,205000,9754,10343,63642,60544,54851,444,13628,57231,10563,0
207,206000,9754,10343,63642,56696,59122,184,13629,57230,10563,0
208,207000,9754,10344,63642,52276,62499,1709,13630,57230,10563,0
209,208000,9754,10344,63642,47717,64653,4871,13630,57230,10562,0
210,209000,9754,10344,63642,43463,65373,9359,13631,57231,10562,0
211,210000,9754,10344,63642,39934,64587,14735,13631,57231,10561,0
212,211000,9754,10344,63642,37473,62372,20472,13630,57232,10560,0
213,212000,9754,10343,63642,36321,58945,26009,13630,57232,10560,0
214,213000,9754,10343,63642,36591,54642,30803,13629,57233,10559,0
215,214000,9754,10343,63642,38256,49884,34385,13628,57234,10559,0
216,215000,9754,10343,63642,41154,45137,36406,13628,57234,10559,0
217,216000,9754,10343,63642,44999,40864,36666,13627,57235,10559,0
218,217000,9754,10343,63642,49417,37485,35142,13626,57235,10559,0
219,218000,9754,10343,63642,53973,35331,31983,13626,57235,10560,0
220,219000,9754,10343,63642,58224,34610,27496,13625,57234,10561,0
221,220000,9754,10343,63642,61752,35395,22123,13625,57234,10561,0
222,221000,9754,10343,63642,64212,37608,16389,13626,57233,10562,0
223,222000,9754,10343,63642,65363,41033,10856,13626,57233,10563,0
224,223000,9754,10343,63642,65093,45333,6063,13627,57232,10563,0
225,224000,9754,10343,63642,63427,50089,2482,13628,57231,10563,0
226,225000,9754,10343,63642,60528,54835,462,13628,57231,10563,0
227,226000,9754,10343,63642,56680,59106,202,13629,57230,10563,0
228,227000,9754,10344,63642,52261,62483,1727,13630,57230,10563,0
229,228000,9754,10344,63642,47701,64637,4889,13630,57230,10562,0
230,229000,9754,10344,63642,43448,65357,9377,13631,57231,10562,0
231,230000,9754,10344,63642,39918,64571,14754,13631,57231,10561,0
232,231000,9754,10344,63642,37457,62356,20491,13630,57232,10560,0
233,232000,9754,10343,63642,36305,58929,26027,13630,57232,10560,0
234,233000,9754,10343,63642,36576,54626,30821,13629,57233,10559,0
235,234000,9754,10343,63642,38241,49868,34404,13628,57234,10559,0
236,235000,9754,10343,63642,41138,45120,36424,13628,57234,10559,0
237,236000,9754,10343,63642,44984,40848,36685,13627,57235,10559,0
238,237000,9754,10343,63642,49401,37469,35160,13626,57235,10559,0
239,238000,9754,10343,63642,53958,35314,32001,13626,57235,10560,0
240,239000,9754,10343,63642,58208,34594,27515,13625,57234,10561,0
241,240000,9754,10343,63642,61736,35379,22142,13625,57234,10561,0
242,241000,9754,10343,63642,64196,37592,16408,13626,57233,10562,0
243,242000,9754,10343,63642,65347,41016,10874,13626,57233,10563,0
244,243000,9754,10343,63642,65077,45317,6082,13627,57232,10563,0
245,244000,9754,10343,63642,63411,50073,2500,13628,57231,10563,0
246,245000,9754,10343,63642,60512,54819,481,13628,57231,10563,0
247,246000,9754,10343,63642,56665,59090,221,13629,57230,10563,0
248,247000,9754,10344,63642,52245,62467,1746,13630,57230,10563,0
249,248000,9754,10344,63642,47686,64621,4907,13630,57230,10562,0
250,249000,9754,10344,63642,43432,65340,9396,13631,57231,10562,0
251,250000,9754,10344,63642,39902,64555,14772,13631,57231,10561,0
252,251000,9754,10344,63642,37441,62340,20509,13630,57232,10560,0
253,252000,9754,10343,63642,36290,58913,26045,13630,57232,10560,0
254,253000,9754,10343,63642,36560,54610,30840,13629,57233,10559,0
255,254000,9754,10343,63642,38225,49852,34422,13628,57234,10559,0
256,255000,9754,10343,63642,41122,45104,36443,13628,57234,10559,0
257,256000,9754,10343,63642,44968,40832,36703,13627,57235,10559,0
258,257000,9754,10343,63642,49385,37453,35179,13626,57235,10559,0
259,258000,9754,10343,63642,53942,35298,32019,13626,57235,10560,0
260,259000,9754,10343,63642,58193,34578,27533,13625,57234,10561,0
261,260000,9754,10343,63642,61721,35363,22160,13625,57234,10561,0
262,261000,9754,10343,63642,64181,37576,16426,13626,57233,10562,0
263,262000,9754,10343,63642,65332,41000,10892,13626,57233,10563,0
264,263000,9754,10343,63642,65061,45301,6100,13627,57232,10563,0
265,264000,9754,10343,63642,63396,50057,2519,13628,57231,10563,0
266,265000,9754,10343,63642,60497,54803,499,13629,57231,10563,0
267,266000,9754,10343,63642,56649,59073,239,13629,57230,10563,0
268,267000,9754,10344,63642,52229,62451,1764,13630,57230,10563,0
269,268000,9754,10344,63642,47670,64605,4926,13630,57230,10562,0
270,269000,9754,10344,63642,43417,65324,9414,13631,57230,10562,0
271,270000,9754,10344,63642,39887,64538,14791,13631,57231,10561,0
272,271000,9754,10344,63642,37426,62324,20527,13630,57232,10560,0
273,272000,9754,10343,63642,36274,58897,26064,13630,57232,10560,0
274,273000,9754,10343,63642,36544,54594,30858,13629,57233,10559,0
275,274000,9754,10343,63642,38210,49836,34441,13628,57234,10559,0
276,275000,9754,10343,63642,41107,45088,36461,13628,57234,10559,0
277,276000,9754,10343,63642,44953,40816,36721,13627,57235,10559,0
278,277000,9754,10343,63642,49370,37437,35197,13626,57235,10559,0
279,278000,9754,10343,63642,53926,35282,32038,13626,57235,10560,0
280,279000,9754,10343,63642,58177,34562,27552,13625,57234,10560,0
281,280000,9754,10343,63642,61706,35346,22178,13625,57234,10561,0
282,281000,9754,10343,63642,64165,37559,16445,13626,57233,10562,0
283,282000,9754,10343,63642,65316,40984,10911,13626,57233,10563,0
284,283000,9754,10343,63642,65046,45285,6119,13627,57232,10563,0
285,284000,9754,10343,63642,63380,50041,2537,13628,57231,10563,0
286,285000,9754,10343,63642,60481,54786,518,13629,57231,10563,0
287,286000,9754,10343,63642,56633,59057,258,13629,57230,10563,0
288,287000,9754,10344,63642,52214,62435,1783,13630,57230,10563,0
289,288000,9754,10344,63642,47654,64589,4944,13631,57230,10562,0
290,289000,9754,10344,63642,43401,65308,9433,13631,57230,10562,0
291,290000,9754,10344,63642,39871,64522,14809,13631,57231,10561,0
292,291000,9754,10344,63642,37410,62307,20546,13630,57232,10560,0
293,292000,9754,10343,63642,36258,58881,26082,13630,57232,10560,0
294,293000,9754,10343,63642,36529,54578,30877,13629,57233,10559,0
