RTDS Simulation, 0,1999
7,6A,1D
1,IAvnCT,,,Amps,2.57142E-4,-15.8134,0,0,65535,1.0,1.0,P
2,IBvnCT,,,Amps,2.65323E-4,-16.7286,0,0,65535,1.0,1.0,P
3,ICvnCT,,,Amps,3.99952E-4,-16.4775,0,0,65535,1.0,1.0,P
4,IAnnCT,,,Amps,2.41842E-5,-0.791727,0,0,65535,1.0,1.0,P
5,IBnnCT,,,Amps,2.07092E-5,-0.681944,0,0,65535,1.0,1.0,P
6,ICnnCT,,,Amps,2.43123E-5,-0.719176,0,0,65535,1.0,1.0,P
1,LG_FLT,0,,0
50.0
1
1000.0,2000
02/03/2020,16:22:11.009000
02/03/2020,16:22:12.009000
ASCII
1
1,0,62165,64261,39982,18241,24869,50865,0
2,1000,61546,64605,40076,24021,17685,51235,0
3,2000,60937,64791,40311,30617,12087,49442,0
4,3000,60394,64894,40644,37464,8566,45631,0
5,4000,59981,64821,41035,43916,7346,40252,0
6,5000,59741,64525,41433,49213,8644,33877,0
7,6000,59619,64059,41797,52771,12467,27082,0
8,7000,59618,63495,42092,54506,18196,20476,0
9,8000,59855,62893,42276,54101,25359,14777,0
10,9000,60286,62327,42369,51497,33219,10673,0
11,10000,60835,61845,42414,47124,41093,8314,0
12,11000,61449,61522,42315,41343,48206,8007,0
13,12000,62048,61354,42077,34785,53726,9829,0
14,13000,62580,61238,41748,28001,57178,13635,0
15,14000,62972,61297,41364,21618,58380,18961,0
16,15000,63189,61587,40971,16359,57120,25266,0
17,16000,63323,62045,40611,12811,53355,32002,0
18,17000,63354,62599,40316,11040,47702,38579,0
19,18000,63134,63198,40132,11375,40604,44292,0
20,19000,62710,63767,40037,13915,32765,48443,0
21,20000,62164,64261,39982,18250,24859,50865,0
22,21000,61545,64605,40076,24031,17678,51232,0
23,22000,60936,64791,40312,30627,12083,49436,0
24,23000,60393,64894,40645,37473,8565,45623,0
25,24000,59981,64821,41035,43923,7349,40242,0
26,25000,59740,64524,41434,49217,8650,33867,0
27,26000,59619,64058,41797,52773,12475,27073,0
28,27000,59619,63494,42092,54504,18207,20468,0
29,28000,59856,62892,42276,54097,25370,14772,0
30,29000,60287,62327,42369,51490,33229,10670,0
31,30000,60836,61844,42414,47116,41102,8315,0
32,31000,61450,61522,42314,41334,48212,8010,0
33,32000,62049,61354,42077,34776,53730,9834,0
34,33000,62581,61238,41747,27993,57179,13643,0
35,34000,62973,61298,41363,21612,58378,18970,0
36,35000,63190,61587,40971,16355,57114,25275,0
37,36000,63324,62046,40610,12809,53348,32011,0
38,37000,63354,62600,40315,11041,47692,38587,0
39,38000,63133,63199,40132,11379,40593,44298,0
40,39000,62709,63767,40037,13921,32754,48446,0
41,40000,62163,64262,39982,18258,24849,50865,0
42,41000,61545,64606,40076,24040,17670,51228,0
43,42000,60936,64791,40312,30637,12078,49430,0
44,43000,60393,64894,40645,37482,8563,45614,0
45,44000,59981,64821,41036,43930,7351,40233,0
46,45000,59741,64523,41434,49221,8657,33858,0
47,46000,59619,64057,41798,52775,12484,27064,0
48,47000,59619,63493,42093,54502,18217,20461,0
49,48000,59856,62892,42276,54092,25381,14767,0
50,49000,60288,62326,42369,51484,33240,10668,0
51,50000,60836,61844,42414,47108,41112,8315,0
52,51000,61450,61522,42314,41325,48219,8013,0
53,52000,62049,61354,42076,34767,53733,9840,0
54,53000,62581,61238,41747,27984,57181,13650,0
55,54000,62973,61298,41363,21605,58375,18979,0
56,55000,63190,61588,40970,16350,57109,25284,0
57,56000,63324,62046,40610,12807,53339,32020,0
58,57000,63354,62601,40315,11042,47682,38594,0
59,58000,63132,63200,40132,11383,40582,44303,0
60,59000,62708,63768,40037,13927,32743,48449,0
61,60000,62162,64262,39982,18267,24839,50865,0
62,61000,61544,64606,40077,24050,17663,51225,0
63,62000,60935,64791,40313,30646,12074,49424,0
64,63000,60392,64894,40646,37491,8563,45606,0
65,64000,59981,64820,41036,43937,7354,40224,0
66,65000,59741,64523,41435,49225,8663,33848,0
67,66000,59619,64056,41798,52776,12492,27055,0
68,67000,59619,63493,42093,54501,18228,20454,0
69,68000,59857,62891,42276,54088,25392,14762,0
70,69000,60289,62326,42369,51477,33250,10666,0
71,70000,60837,61843,42414,47099,41121,8316,0
72,71000,61451,61522,42314,41316,48226,8016,0
73,72000,62050,61354,42076,34758,53737,9846,0
74,73000,62582,61238,41746,27976,57182,13657,0
75,74000,62974,61299,41362,21598,58373,18987,0
76,75000,63190,61588,40970,16346,57103,25294,0
77,76000,63324,62047,40610,12805,53332,32028,0
78,77000,63354,62602,40315,11043,47672,38602,0
79,78000,63132,63200,40132,11387,40571,44309,0
80,79000,62708,63769,40036,13934,32732,48452,0
81,80000,62161,64262,39983,18275,24830,50865,0
82,81000,61543,64606,40077,24059,17656,51222,0
83,82000,60934,64791,40313,30656,12070,49418,0
84,83000,60391,64894,40646,37500,8561,45599,0
85,84000,59980,64820,41037,43944,7357,40215,0
86,85000,59741,64522,41435,49230,8669,33839,0
87,86000,59619,64055,41798,52778,12501,27046,0
88,87000,59620,63492,42093,54499,18238,20447,0
89,88000,59858,62890,42276,54083,25403,14757,0
90,89000,60290,62325,42369,51470,33260,10663,0
91,90000,60838,61843,42414,47091,41129,8317,0
92,91000,61452,61521,42313,41307,48233,8020,0
93,92000,62051,61353,42076,34749,53741,9851,0
94,93000,62582,61238,41746,27968,57183,13665,0
95,94000,62974,61299,41361,21592,58371,18996,0
96,95000,63190,61589,40969,16341,57097,25303,0
97,96000,63324,62048,40609,12803,53324,32037,0
98,97000,63353,62602,40315,11044,47662,38609,0
99,98000,63131,63201,40132,11391,40560,44314,0
100,99000,62707,63769,40037,13943,32721,48452,0
101,100000,62160,64263,39983,18283,24820,50865,0
102,101000,61542,64606,40078,24069,17649,51219,0
103,102000,60933,64791,40314,30665,12066,49412,0
104,103000,60391,64893,40647,37508,8560,45591,0
105,104000,59980,64819,41037,43950,7360,40206,0
106,105000,59741,64521,41436,49233,8676,33830,0
107,106000,59619,64055,41799,52779,12509,27037,0
108,107000,59620,63491,42093,54497,18248,20439,0
109,108000,59858,62889,42276,54079,25413,14753,0
110,109000,60290,62324,42369,51464,33271,10661,0
111,110000,60839,61843,42414,47083,41139,8317,0
112,111000,61453,61521,42313,41298,48239,8023,0
113,112000,62052,61353,42075,34740,53745,9857,0
114,113000,62583,61238,41745,27960,57184,13672,0
115,114000,62974,61299,41361,21585,58368,19004,0
116,115000,63191,61590,40969,16337,57092,25312,0
117,116000,63325,62048,40609,12801,53316,32046,0
118,117000,63353,62603,40314,11045,47652,38617,0
119,118000,63131,63202,40132,11395,40550,44319,0
120,119000,62706,63770,40036,13949,32711,48455,0
121,120000,62160,64263,39983,18292,24810,50865,0
122,121000,61541,64606,40078,24078,17641,51215,0
123,122000,60933,64791,40314,30675,12062,49406,0
124,123000,60390,64893,40647,37517,8560,45583,0
125,124000,59980,64819,41038,43957,7363,40196,0
126,125000,59741,64521,41436,49237,8682,33820,0
127,126000,59619,64054,41799,52781,12517,27029,0
128,127000,59621,63490,42093,54496,18259,20432,0
129,128000,59859,62889,42277,54075,25424,14748,0
130,129000,60291,62324,42369,51457,33281,10659,0
131,130000,60840,61842,42414,47074,41147,8318,0
132,131000,61454,61521,42313,41290,48246,8026,0
133,132000,62052,61353,42075,34731,53748,9863,0
134,133000,62583,61238,41745,27952,57184,13680,0
135,134000,62975,61300,41360,21578,58366,19013,0
136,135000,63191,61590,40968,16333,57086,25321,0
137,136000,63325,62049,40608,12799,53308,32054,0
138,137000,63353,62604,40314,11046,47642,38624,0
139,138000,63130,63203,40131,11399,40539,44324,0
140,139000,62705,63771,40036,13956,32700,48457,0
141,140000,62159,64264,39983,18300,24801,50865,0
142,141000,61540,64607,40078,24088,17634,51212,0
143,142000,60932,64791,40314,30684,12058,49400,0
144,143000,60390,64893,40648,37525,8559,45575,0
145,144000,59980,64818,41039,43964,7366,40187,0
146,145000,59741,64520,41437,49241,8688,33811,0
147,146000,59619,64053,41800,52782,12526,27020,0
148,147000,59621,63489,42094,54494,18269,20426,0
149,148000,59860,62888,42277,54070,25434,14743,0
150,149000,60292,62323,42369,51451,33291,10657,0
151,150000,60841,61842,42413,47066,41156,8319,0
152,151000,61454,61521,42312,41281,48252,8029,0
153,152000,62053,61353,42074,34722,53752,9868,0
154,153000,62584,61238,41744,27944,57185,13687,0
155,154000,62975,61300,41360,21572,58363,19021,0
156,155000,63191,61591,40968,16329,57080,25330,0
157,156000,63325,62050,40608,12797,53300,32063,0
158,157000,63353,62605,40314,11047,47632,38631,0
159,158000,63130,63203,40131,11403,40528,44329,0
160,159000,62705,63771,40036,13963,32689,48460,0
161,160000,62158,64264,39983,18309,24792,50864,0
162,161000,61540,64607,40079,24097,17628,51209,0
163,162000,60931,64791,40315,30694,12055,49394,0
164,163000,60389,64893,40649,37534,8559,45567,0
165,164000,59980,64818,41039,43970,7369,40178,0
166,165000,59741,64519,41437,49245,8695,33802,0
167,166000,59620,64052,41800,52783,12534,27012,0
168,167000,59621,63488,42094,54492,18279,20419,0
169,168000,59860,62887,42277,54066,25445,14739,0
170,169000,60293,62322,42369,51444,33301,10655,0
171,170000,60842,61841,42413,47058,41165,8319,0
172,171000,61455,61520,42312,41272,48258,8033,0
173,172000,62054,61353,42074,34714,53755,9874,0
174,173000,62585,61238,41744,27935,57186,13694,0
175,174000,62975,61300,41359,21566,58361,19030,0
176,175000,63192,61591,40967,16325,57075,25338,0
177,176000,63325,62051,40607,12795,53293,32072,0
178,177000,63352,62606,40313,11048,47622,38639,0
179,178000,63129,63204,40131,11407,40517,44334,0
180,179000,62704,63772,40036,13969,32679,48462,0
181,180000,62157,64265,39983,18317,24782,50864,0
182,181000,61539,64607,40079,24106,17621,51205,0
183,182000,60931,64791,40315,30703,12051,49388,0
184,183000,60389,64893,40649,37542,8559,45559,0
185,184000,59979,64817,41040,43977,7372,40169,0
186,185000,59741,64519,41437,49249,8701,33793,0
187,186000,59620,64051,41800,52784,12543,27004,0
188,187000,59622,63488,42094,54490,18289,20412,0
189,188000,59861,62886,42277,54061,25455,14734,0
190,189000,60293,62322,42369,51437,33311,10653,0
191,190000,60842,61841,42413,47050,41173,8320,0
192,191000,61456,61520,42312,41263,48264,8036,0
193,192000,62054,61353,42073,34705,53759,9880,0
194,193000,62585,61238,41743,27928,57186,13702,0
195,194000,62976,61301,41359,21559,58358,19038,0
196,195000,63192,61592,40967,16321,57069,25347,0
197,196000,63326,62051,40607,12793,53285,32080,0
198,197000,63352,62606,40313,11050,47613,38646,0
199,198000,63129,63205,40131,11411,40507,44339,0
200,199000,62703,63773,40036,13976,32668,48465,0
201,200000,62156,64265,39983,18325,24773,50863,0
202,201000,61538,64607,40079,24115,17614,51202,0
203,202000,60930,64791,40316,30712,12047,49382,0
204,203000,60388,64893,40650,37550,8558,45551,0
205,204000,59979,64817,41040,43983,7376,40160,0
206,205000,59741,64518,41438,49253,8707,33784,0
207,206000,59620,64051,41801,52786,12551,26995,0
208,207000,59622,63487,42094,54488,18299,20405,0
209,208000,59861,62886,42277,54057,25466,14730,0
210,209000,60294,62321,42369,51431,33321,10651,0
211,210000,60843,61840,42413,47042,41182,8321,0
212,211000,61457,61520,42311,41255,48270,8039,0
213,212000,62055,61352,42073,34696,53762,9885,0
214,213000,62586,61238,41743,27920,57187,13709,0
215,214000,62976,61301,41358,21553,58355,19047,0
216,215000,63192,61593,40966,16317,57063,25356,0
217,216000,63326,62052,40607,12791,53277,32088,0
218,217000,63352,62607,40313,11051,47603,38653,0
219,218000,63128,63206,40131,11415,40496,44344,0
220,219000,62702,63773,40036,13982,32658,48467,0
221,220000,62155,64266,39983,18334,24764,50863,0
222,221000,61537,64607,40080,24124,17608,51198,0
223,222000,60929,64791,40316,30721,12044,49375,0
224,223000,60388,64893,40650,37559,8558,45543,0
225,224000,59979,64816,41041,43989,7379,40151,0
226,225000,59741,64517,41438,49256,8714,33775,0
227,226000,59620,64050,41801,52788,12558,26987,0
228,227000,59622,63486,42094,54488,18307,20398,0
229,228000,59862,62885,42277,54052,25476,14726,0
230,229000,60295,62321,42369,51423,33332,10650,0
231,230000,60844,61840,42413,47034,41189,8322,0
232,231000,61457,61520,42311,41247,48276,8043,0
233,232000,62056,61352,42072,34688,53765,9891,0
234,233000,62586,61238,41742,27913,57187,13716,0
235,234000,62977,61301,41358,21547,58353,19055,0
236,235000,63193,61593,40966,16314,57057,25365,0
237,236000,63326,62053,40606,12789,53271,32097,0
238,237000,63352,62608,40313,11051,47594,38660,0
239,238000,63127,63206,40131,11420,40485,44349,0
240,239000,62701,63774,40036,13990,32647,48469,0
241,240000,62155,64266,39983,18341,24756,50862,0
242,241000,61536,64607,40080,24133,17601,51195,0
243,242000,60929,64791,40317,30730,12041,49369,0
244,243000,60388,64892,40651,37566,8558,45535,0
245,244000,59979,64816,41041,43995,7382,40142,0
246,245000,59741,64517,41439,49259,8721,33766,0
247,246000,59620,64049,41801,52789,12566,26979,0
248,247000,59623,63485,42095,54486,18318,20392,0
249,248000,59863,62884,42277,54047,25487,14722,0
250,249000,60296,62320,42369,51417,33341,10648,0
251,250000,60845,61840,42413,47027,41198,8323,0
252,251000,61458,61519,42311,41238,48282,8046,0
253,252000,62057,61352,42072,34680,53768,9897,0
254,253000,62587,61238,41742,27905,57187,13724,0
255,254000,62977,61302,41357,21540,58350,19064,0
256,255000,63193,61594,40965,16310,57051,25373,0
257,256000,63326,62053,40606,12786,53264,32105,0
258,257000,63352,62609,40312,11052,47584,38667,0
259,258000,63127,63207,40130,11425,40474,44354,0
260,259000,62701,63775,40036,13996,32637,48471,0
261,260000,62154,64266,39983,18350,24746,50861,0
262,261000,61536,64608,40080,24143,17594,51191,0
263,262000,60928,64791,40317,30739,12037,49363,0
264,263000,60387,64892,40651,37574,8558,45528,0
265,264000,59979,64815,41042,44001,7385,40134,0
266,265000,59741,64516,41439,49263,8727,33757,0
267,266000,59620,64048,41802,52789,12576,26971,0
268,267000,59623,63484,42095,54482,18330,20385,0
269,268000,59863,62884,42277,54043,25497,14717,0
270,269000,60296,62320,42369,51412,33349,10646,0
271,270000,60846,61839,42412,47017,41208,8324,0
272,271000,61459,61519,42310,41229,48289,8050,0
273,272000,62057,61352,42072,34671,53772,9903,0
274,273000,62587,61238,41741,27896,57189,13731,0
275,274000,62977,61302,41357,21535,58347,19072,0
276,275000,63193,61594,40965,16305,57046,25382,0
277,276000,63327,62054,40605,12785,53255,32113,0
278,277000,63351,62610,40312,11054,47574,38674,0
279,278000,63126,63208,40130,11428,40465,44358,0
280,279000,62700,63775,40036,14003,32626,48474,0
281,280000,62153,64267,39984,18359,24737,50861,0
282,281000,61535,64608,40081,24151,17589,51188,0
283,282000,60927,64791,40318,30748,12034,49357,0
284,283000,60386,64892,40652,37583,8557,45520,0
285,284000,59978,64815,41042,44007,7389,40125,0
286,285000,59741,64515,41440,49266,8733,33748,0
287,286000,59621,64047,41802,52782,12594,26962,0
288,287000,59625,63483,42095,54473,18348,20379,0
289,288000,59864,62883,42277,54041,25503,14713,0
290,289000,60297,62319,42369,51408,33355,10644,0
291,290000,60847,61839,42412,47006,41220,8325,0
292,291000,61460,61519,42310,41219,48296,8053,0
293,292000,62058,61352,42071,34664,53773,9908,0
294,293000,62588,61238,41741,27887,57191,13738,0
295,294000,62978,61302,41356,21529,58345,19080,0
296,295000,63193,61595,40964,16302,57040,25391,0
297,296000,63326,62055,40605,12789,53240,32121,0
298,297000,63351,62611,40312,11059,47560,38681,0
299,298000,63126,63208,40130,11429,40458,44363,0
300,299000,62699,63776,40036,14008,32618,48475,0
301,300000,62152,64267,39984,18369,24726,50860,0
302,301000,61534,64608,40081,24161,17582,51184,0
303,302000,60927,64790,40318,30757,12031,49351,0
304,303000,60386,64892,40652,37592,8556,45512,0
305,304000,59978,64815,41043,44013,7392,40116,0
306,305000,59741,64514,41440,49270,8739,33739,0
307,306000,59621,64046,41802,52782,12604,26954,0
308,307000,59625,63483,42095,54472,18357,20372,0
309,308000,59864,62882,42277,54038,25512,14709,0
310,309000,60298,62319,42369,51401,33365,10643,0
311,310000,60848,61838,42412,46998,41228,8326,0
312,311000,61461,61519,42310,41211,48301,8056,0
313,312000,62058,61352,42071,34655,53777,9914,0
314,313000,62589,61238,41740,27879,57191,13746,0
315,314000,62978,61303,41356,21524,58341,19088,0
316,315000,63194,61596,40964,16297,57035,25400,0
317,316000,63326,62056,40605,12789,53232,32130,0
318,317000,63350,62611,40312,11061,47551,38688,0
319,318000,63126,63209,40130,11433,40448,44367,0
320,319000,62699,63776,40036,14015,32607,48477,0
321,320000,62151,64268,39984,18377,24718,50859,0
322,321000,61533,64608,40081,24169,17576,51181,0
323,322000,60926,64790,40319,30766,12028,49345,0
324,323000,60386,64892,40653,37599,8557,45504,0
325,324000,59978,64814,41043,44019,7396,40107,0
326,325000,59741,64514,41441,49274,8745,33730,0
327,326000,59622,64046,41802,52782,12612,26946,0
328,327000,59625,63482,42095,54470,18367,20366,0
329,328000,59865,62882,42277,54034,25522,14705,0
330,329000,60298,62318,42369,51394,33375,10642,0
331,330000,60848,61838,42412,46990,41236,8327,0
332,331000,61461,61518,42309,41203,48307,8060,0
333,332000,62059,61352,42070,34647,53780,9920,0
334,333000,62589,61238,41740,27872,57192,13753,0
335,334000,62978,61303,41355,21518,58339,19096,0
336,335000,63194,61596,40964,16294,57029,25408,0
337,336000,63326,62057,40604,12787,53224,32138,0
338,337000,63350,62612,40312,11062,47541,38694,0
339,338000,63125,63210,40130,11437,40438,44372,0
340,339000,62698,63777,40036,14022,32597,48479,0
341,340000,62150,64268,39984,18386,24709,50858,0
342,341000,61532,64608,40082,24178,17570,51177,0
343,342000,60925,64790,40319,30775,12025,49339,0
344,343000,60385,64891,40653,37607,8557,45496,0
345,344000,59978,64814,41044,44024,7399,40099,0
346,345000,59741,64513,41441,49277,8752,33721,0
347,346000,59622,64045,41803,52783,12620,26938,0
348,347000,59626,63481,42095,54467,18377,20360,0
349,348000,59865,62881,42277,54029,25531,14702,0
350,349000,60299,62317,42369,51388,33384,10640,0
351,350000,60849,61837,42412,46982,41244,8328,0
352,351000,61462,61518,42309,41195,48312,8063,0
353,352000,62060,61352,42070,34639,53782,9926,0
354,353000,62590,61238,41739,27864,57192,13760,0
355,354000,62979,61304,41355,21512,58336,19105,0
356,355000,63194,61597,40963,16290,57023,25417,0
357,356000,63326,62057,40604,12786,53216,32146,0
358,357000,63350,62613,40311,11064,47531,38701,0
359,358000,63124,63211,40130,11441,40428,44376,0
360,359000,62697,63778,40035,14029,32587,48481,0
361,360000,62149,64269,39984,18394,24700,50858,0
362,361000,61532,64608,40082,24187,17564,51174,0
363,362000,60925,64790,40320,30784,12022,49332,0
364,363000,60385,64891,40654,37615,8557,45488,0
365,364000,59978,64813,41044,44030,7402,40090,0
366,365000,59741,64512,41441,49280,8758,33713,0
367,366000,59622,64044,41803,52784,12629,26931,0
368,367000,59626,63480,42095,54466,18387,20353,0
369,368000,59866,62880,42277,54025,25542,14697,0
370,369000,60300,62317,42369,51381,33393,10639,0
371,370000,60850,61837,42411,46974,41252,8329,0
372,371000,61463,61518,42309,41186,48318,8067,0
373,372000,62060,61351,42069,34631,53785,9931,0
374,373000,62590,61238,41739,27857,57192,13767,0
375,374000,62979,61304,41354,21506,58333,19113,0
376,375000,63195,61597,40963,16287,57018,25425,0
377,376000,63327,62058,40604,12785,53208,32154,0
378,377000,63350,62614,40311,11065,47522,38708,0
379,378000,63124,63211,40130,11445,40418,44381,0
380,379000,62696,63778,40035,14036,32577,48483,0
381,380000,62149,64269,39984,18402,24692,50857,0
382,381000,61531,64608,40082,24196,17557,51170,0
383,382000,60924,64790,40320,30792,12019,49326,0
384,383000,60384,64891,40654,37623,8557,45480,0
385,384000,59977,64813,41045,44036,7406,40081,0
386,385000,59741,64512,41442,49284,8765,33704,0
387,386000,59622,64043,41803,52785,12637,26923,0
388,387000,59627,63479,42096,54463,18396,20347,0
389,388000,59867,62880,42277,54020,25552,14694,0
390,389000,60301,62316,42369,51374,33403,10638,0
391,390000,60851,61837,42411,46966,41259,8330,0
392,391000,61463,61518,42308,41178,48324,8071,0
393,392000,62061,61351,42069,34622,53788,9937,0
394,393000,62591,61238,41738,27849,57192,13775,0
395,394000,62979,61304,41354,21500,58330,19121,0
396,395000,63195,61598,40962,16284,57012,25434,0
397,396000,63327,62059,40603,12783,53200,32162,0
