RTDS Simulation, 0,1999
7,6A,1D
1,IAvnCT,,,Amps,3.41607E-5,-1.89951,0,0,65535,1.0,1.0,P
2,IBvnCT,,,Amps,2.86925E-4,-3.18218,0,0,65535,1.0,1.0,P
3,ICvnCT,,,Amps,1.55179E-5,-0.815523,0,0,65535,1.0,1.0,P
4,IAnnCT,,,Amps,8.07024E-13,-5.28883E-8,0,0,65535,1.0,1.0,P
5,IBnnCT,,,Amps,1.31906E-12,0.0,0,0,65535,1.0,1.0,P
6,ICnnCT,,,Amps,9.51161E-13,-6.23343E-8,0,0,65535,1.0,1.0,P
1,LG_FLT,0,,0
50.0
1
1000.0,2000
02/03/2020,16:14:50.078000
02/03/2020,16:14:51.078000
ASCII
1
1,0,55605,11090,52553,13735,58003,10006,0
2,1000,55605,11090,52553,13736,58003,10006,0
3,2000,55605,11090,52553,13737,58002,10005,0
4,3000,55605,11090,52553,13738,58002,10005,0
5,4000,55605,11090,52553,13739,58002,10004,0
6,5000,55605,11090,52553,13740,58002,10003,0
7,6000,55605,11090,52553,13741,58002,10003,0
8,7000,55605,11090,52553,13741,58003,10002,0
9,8000,55605,11090,52553,13740,58003,10002,0
10,9000,55605,11090,52553,13739,58003,10002,0
11,10000,55605,11090,52553,13739,58004,10002,0
12,11000,55605,11090,52554,13737,58005,10002,0
13,12000,55605,11090,52554,13736,58005,10003,0
14,13000,55605,11090,52554,13735,58005,10003,0
15,14000,55605,11090,52553,13734,58005,10004,0
16,15000,55605,11090,52553,13733,58005,10005,0
17,16000,55605,11090,52553,13733,58005,10005,0
18,17000,55605,11090,52553,13733,58005,10006,0
19,18000,55605,11090,52553,13733,58004,10006,0
20,19000,55605,11090,52553,13734,58004,10006,0
21,20000,55605,11090,52553,13735,58003,10006,0
22,21000,55605,11090,52553,13736,58003,10006,0
23,22000,55605,11090,52553,13737,58002,10005,0
24,23000,55605,11090,52553,13738,58002,10005,0
25,24000,55605,11090,52553,13739,58002,10004,0
26,25000,55605,11090,52553,13740,58002,10003,0
27,26000,55605,11090,52553,13741,58002,10003,0
28,27000,55605,11090,52553,13741,58003,10002,0
29,28000,55605,11090,52553,13740,58003,10002,0
30,29000,55605,11090,52553,13740,58003,10002,0
31,30000,55605,11090,52553,13739,58004,10002,0
32,31000,55605,11090,52554,13737,58005,10002,0
33,32000,55605,11090,52554,13736,58005,10003,0
34,33000,55605,11090,52554,13735,58005,10003,0
35,34000,55605,11090,52553,13734,58005,10004,0
36,35000,55605,11090,52553,13733,58005,10005,0
37,36000,55605,11090,52553,13733,58005,10005,0
38,37000,55605,11090,52553,13733,58005,10006,0
39,38000,55605,11090,52553,13733,58004,10006,0
40,39000,55605,11090,52553,13734,58004,10006,0
41,40000,55605,11090,52553,13735,58003,10006,0
42,41000,55605,11090,52553,13736,58003,10006,0
43,42000,55605,11090,52553,13737,58002,10005,0
44,43000,55605,11090,52553,13738,58002,10005,0
45,44000,55605,11090,52553,13739,58002,10004,0
46,45000,55605,11090,52553,13740,58002,10003,0
47,46000,55605,11090,52553,13741,58002,10003,0
48,47000,55605,11090,52553,13741,58003,10002,0
49,48000,55605,11090,52553,13740,58003,10002,0
50,49000,55605,11090,52553,13739,58003,10002,0
51,50000,55605,11090,52553,13739,58004,10002,0
52,51000,55605,11090,52554,13737,58005,10002,0
53,52000,55605,11090,52554,13736,58005,10003,0
54,53000,55605,11090,52554,13735,58005,10003,0
55,54000,55605,11090,52553,13734,58005,10004,0
56,55000,55605,11090,52553,13733,58005,10005,0
57,56000,55605,11090,52553,13733,58005,10005,0
58,57000,55605,11090,52553,13733,58005,10006,0
59,58000,55605,11090,52553,13733,58004,10006,0
60,59000,55605,11090,52553,13734,58004,10006,0
61,60000,55605,11090,52553,13735,58003,10006,0
62,61000,55605,11090,52553,13736,58003,10006,0
63,62000,55605,11090,52553,13737,58002,10005,0
64,63000,55605,11090,52553,13738,58002,10005,0
65,64000,55605,11090,52553,13739,58002,10004,0
66,65000,55605,11090,52553,13740,58002,10003,0
67,66000,55605,11090,52553,13740,58002,10003,0
68,67000,55605,11090,52553,13741,58003,10002,0
69,68000,55605,11090,52553,13740,58003,10002,0
70,69000,55605,11090,52553,13740,58003,10002,0
71,70000,55605,11090,52553,13739,58004,10002,0
72,71000,55605,11090,52554,13737,58004,10002,0
73,72000,55605,11090,52554,13736,58005,10003,0
74,73000,55605,11090,52554,13735,58005,10003,0
75,74000,55605,11090,52553,13734,58005,10004,0
76,75000,55605,11090,52553,13733,58005,10005,0
77,76000,55605,11090,52553,13733,58005,10005,0
78,77000,55605,11090,52553,13733,58005,10006,0
79,78000,55605,11090,52553,13733,58004,10006,0
80,79000,55605,11090,52553,13734,58004,10006,0
81,80000,55605,11090,52553,13735,58003,10006,0
82,81000,55605,11090,52553,13736,58003,10006,0
83,82000,55605,11090,52553,13737,58002,10005,0
84,83000,55605,11090,52553,13738,58002,10005,0
85,84000,55605,11090,52553,13739,58002,10004,0
86,85000,55605,11090,52553,13740,58002,10003,0
87,86000,55605,11090,52553,13741,58002,10003,0
88,87000,55605,11090,52553,13741,58002,10002,0
89,88000,55605,11090,52553,13740,58003,10002,0
90,89000,55605,11090,52553,13740,58004,10002,0
91,90000,55605,11090,52553,13739,58004,10002,0
92,91000,55605,11090,52554,13738,58005,10002,0
93,92000,55605,11090,52554,13736,58005,10003,0
94,93000,55605,11090,52554,13735,58005,10003,0
95,94000,55605,11090,52553,13734,58005,10004,0
96,95000,55605,11090,52553,13733,58005,10005,0
97,96000,55605,11090,52553,13733,58005,10005,0
98,97000,55605,11090,52553,13733,58005,10006,0
99,98000,55605,11090,52553,13733,58004,10006,0
100,99000,55605,11090,52553,13734,58004,10006,0
101,100000,55605,11090,52553,13735,58003,10006,0
102,101000,55605,11090,52553,13736,58003,10006,0
103,102000,55605,11090,52553,13737,58002,10005,0
104,103000,55605,11090,52553,13738,58002,10005,0
105,104000,55605,11090,52553,13739,58002,10004,0
106,105000,55605,11090,52553,13740,58002,10003,0
107,106000,55605,11090,52553,13741,58002,10003,0
108,107000,55605,11090,52553,13741,58002,10002,0
109,108000,55605,11090,52553,13740,58003,10002,0
110,109000,55605,11090,52553,13740,58003,10002,0
111,110000,55605,11090,52553,13739,58004,10002,0
112,111000,55605,11090,52554,13738,58004,10002,0
113,112000,55605,11090,52554,13736,58005,10003,0
114,113000,55605,11090,52554,13735,58005,10003,0
115,114000,55605,11090,52553,13734,58005,10004,0
116,115000,55605,11090,52553,13733,58005,10005,0
117,116000,55605,11090,52553,13733,58005,10005,0
118,117000,55605,11090,52553,13733,58005,10006,0
119,118000,55605,11090,52553,13733,58004,10006,0
120,119000,55605,11090,52553,13734,58004,10006,0
121,120000,55605,11090,52553,13735,58003,10006,0
122,121000,55605,11090,52553,13736,58003,10006,0
123,122000,55605,11090,52553,13737,58002,10005,0
124,123000,55605,11090,52553,13738,58002,10005,0
125,124000,55605,11090,52553,13739,58002,10004,0
126,125000,55605,11090,52553,13740,58002,10003,0
127,126000,55605,11090,52553,13741,58002,10003,0
128,127000,55605,11090,52553,13741,58002,10002,0
129,128000,55605,11090,52553,13740,58003,10002,0
130,129000,55605,11090,52553,13740,58003,10002,0
131,130000,55605,11090,52553,13739,58004,10002,0
132,131000,55605,11090,52554,13738,58004,10002,0
133,132000,55605,11090,52554,13736,58005,10003,0
134,133000,55605,11090,52554,13735,58005,10003,0
135,134000,55605,11090,52553,13734,58005,10004,0
136,135000,55605,11090,52553,13733,58005,10005,0
137,136000,55605,11090,52553,13733,58005,10005,0
138,137000,55605,11090,52553,13733,58005,10006,0
139,138000,55605,11090,52553,13733,58004,10006,0
140,139000,55605,11090,52553,13734,58004,10006,0
141,140000,55605,11090,52553,13735,58003,10006,0
142,141000,55605,11090,52553,13736,58003,10006,0
143,142000,55605,11090,52553,13737,58002,10005,0
144,143000,55605,11090,52553,13738,58002,10005,0
145,144000,55605,11090,52553,13739,58002,10004,0
146,145000,55605,11090,52553,13740,58002,10004,0
147,146000,55605,11090,52553,13741,58002,10003,0
148,147000,55605,11090,52553,13741,58002,10002,0
149,148000,55605,11090,52553,13740,58003,10002,0
150,149000,55605,11090,52553,13740,58003,10002,0
151,150000,55605,11090,52553,13739,58004,10002,0
152,151000,55605,11090,52554,13738,58004,10002,0
153,152000,55605,11090,52554,13736,58005,10003,0
154,153000,55605,11090,52554,13735,58005,10003,0
155,154000,55605,11090,52553,13734,58005,10004,0
156,155000,55605,11090,52553,13733,58005,10005,0
157,156000,55605,11090,52553,13733,58005,10005,0
158,157000,55605,11090,52553,13733,58005,10006,0
159,158000,55605,11090,52553,13733,58004,10006,0
160,159000,55605,11090,52553,13734,58004,10006,0
161,160000,55605,11090,52553,13735,58003,10006,0
162,161000,55605,11090,52553,13736,58003,10006,0
163,162000,55605,11090,52553,13737,58002,10005,0
164,163000,55605,11090,52553,13738,58002,10005,0
165,164000,55605,11090,52553,13739,58002,10004,0
166,165000,55605,11090,52553,13740,58002,10004,0
167,166000,55605,11090,52553,13741,58002,10003,0
168,167000,55605,11090,52553,13741,58002,10002,0
169,168000,55605,11090,52553,13740,58003,10002,0
170,169000,55605,11090,52553,13740,58003,10002,0
171,170000,55605,11090,52553,13739,58004,10002,0
172,171000,55605,11090,52554,13738,58004,10002,0
173,172000,55605,11090,52554,13736,58005,10003,0
174,173000,55605,11090,52554,13735,58005,10003,0
175,174000,55605,11090,52553,13734,58005,10004,0
176,175000,55605,11090,52553,13733,58005,10005,0
177,176000,55605,11090,52553,13733,58005,10005,0
178,177000,55605,11090,52553,13733,58005,10006,0
179,178000,55605,11090,52553,13733,58004,10006,0
180,179000,55605,11090,52553,13734,58004,10006,0
181,180000,55605,11090,52553,13735,58003,10006,0
182,181000,55605,11090,52553,13736,58003,10006,0
183,182000,55605,11090,52553,13737,58002,10005,0
184,183000,55605,11090,52553,13739,58002,10005,0
185,184000,55605,11090,52553,13740,58002,10004,0
186,185000,55605,11090,52553,13740,58002,10003,0
187,186000,55605,11090,52553,13741,58002,10003,0
188,187000,55605,11090,52553,13741,58002,10002,0
189,188000,55605,11090,52553,13740,58003,10002,0
190,189000,55605,11090,52553,13740,58003,10002,0
191,190000,55605,11090,52553,13739,58004,10002,0
192,191000,55605,11090,52554,13737,58004,10002,0
193,192000,55605,11090,52554,13736,58005,10003,0
194,193000,55605,11090,52554,13735,58005,10003,0
195,194000,55605,11090,52553,13734,58005,10004,0
196,195000,55605,11090,52553,13733,58005,10005,0
197,196000,55605,11090,52553,13733,58005,10005,0
198,197000,55605,11090,52553,13733,58005,10006,0
199,198000,55605,11090,52553,13733,58004,10006,0
200,199000,55605,11090,52553,13734,58004,10006,0
201,200000,55605,11090,52553,13735,58003,10006,0
202,201000,55605,11090,52553,13736,58003,10006,0
203,202000,55605,11090,52553,13737,58002,10005,0
204,203000,55605,11090,52553,13738,58002,10005,0
205,204000,55605,11090,52553,13740,58002,10004,0
206,205000,55605,11090,52553,13740,58002,10003,0
207,206000,55605,11090,52553,13741,58002,10003,0
208,207000,55605,11090,52553,13741,58002,10002,0
209,208000,55605,11090,52553,13740,58003,10002,0
210,209000,55605,11090,52553,13740,58003,10002,0
211,210000,55605,11090,52553,13739,58004,10002,0
212,211000,55605,11090,52554,13738,58004,10002,0
213,212000,55605,11090,52554,13736,58005,10003,0
214,213000,55605,11090,52554,13735,58005,10003,0
215,214000,55605,11090,52553,13734,58005,10004,0
216,215000,55605,11090,52553,13733,58005,10005,0
217,216000,55605,11090,52553,13733,58005,10005,0
218,217000,55605,11090,52553,13733,58005,10006,0
219,218000,55605,11090,52553,13733,58004,10006,0
220,219000,55605,11090,52553,13734,58004,10006,0
221,220000,55605,11090,52553,13735,58003,10006,0
222,221000,55605,11090,52553,13736,58003,10006,0
223,222000,55605,11090,52553,13737,58002,10006,0
224,223000,55605,11090,52553,13738,58002,10005,0
225,224000,55605,11090,52553,13739,58002,10004,0
226,225000,55605,11090,52553,13740,58002,10003,0
227,226000,55605,11090,52553,13741,58002,10003,0
228,227000,55605,11090,52553,13741,58002,10002,0
229,228000,55605,11090,52553,13740,58003,10002,0
230,229000,55605,11090,52553,13740,58003,10002,0
231,230000,55605,11090,52553,13739,58004,10002,0
232,231000,55605,11090,52554,13738,58004,10002,0
233,232000,55605,11090,52554,13736,58005,10003,0
234,233000,55605,11090,52554,13735,58005,10003,0
235,234000,55605,11090,52553,13734,58005,10004,0
236,235000,55605,11090,52553,13733,58005,10005,0
237,236000,55605,11090,52553,13733,58005,10005,0
238,237000,55605,11090,52553,13733,58005,10006,0
239,238000,55605,11090,52553,13733,58004,10006,0
240,239000,55605,11090,52553,13734,58004,10006,0
241,240000,55605,11090,52553,13735,58003,10006,0
242,241000,55605,11090,52553,13736,58003,10006,0
243,242000,55605,11090,52553,13737,58002,10005,0
244,243000,55605,11090,52553,13739,58002,10005,0
245,244000,55605,11090,52553,13739,58002,10004,0
246,245000,55605,11090,52553,13740,58002,10004,0
247,246000,55605,11090,52553,13741,58002,10003,0
248,247000,55605,11090,52553,13741,58002,10002,0
249,248000,55605,11090,52553,13740,58003,10002,0
250,249000,55605,11090,52553,13740,58003,10002,0
251,250000,55605,11090,52553,13739,58004,10002,0
252,251000,55605,11090,52554,13738,58004,10002,0
253,252000,55605,11090,52554,13736,58005,10003,0
254,253000,55605,11090,52554,13735,58005,10003,0
255,254000,55605,11090,52553,13734,58005,10004,0
256,255000,55605,11090,52553,13733,58005,10005,0
257,256000,55605,11090,52553,13733,58005,10005,0
258,257000,55605,11090,52553,13733,58005,10006,0
259,258000,55605,11090,52553,13733,58004,10006,0
260,259000,55605,11090,52553,13734,58004,10006,0
261,260000,55605,11090,52553,13735,58003,10006,0
262,261000,55605,11090,52553,13736,58003,10006,0
263,262000,55605,11090,52553,13737,58002,10006,0
264,263000,55605,11090,52553,13738,58002,10005,0
265,264000,55605,11090,52553,13739,58002,10004,0
266,265000,55605,11090,52553,13740,58002,10003,0
267,266000,55605,11090,52553,13741,58002,10003,0
268,267000,55605,11090,52553,13741,58002,10002,0
269,268000,55605,11090,52553,13740,58003,10002,0
270,269000,55605,11090,52553,13740,58003,10002,0
271,270000,55605,11090,52553,13739,58004,10002,0
272,271000,55605,11090,52554,13738,58004,10002,0
273,272000,55605,11090,52554,13736,58005,10003,0
274,273000,55605,11090,52554,13735,58005,10003,0
275,274000,55605,11090,52553,13734,58005,10004,0
276,275000,55605,11090,52553,13733,58005,10005,0
277,276000,55605,11090,52553,13733,58005,10005,0
278,277000,55605,11090,52553,13733,58005,10006,0
279,278000,55605,11090,52553,13733,58004,10006,0
280,279000,55605,11090,52553,13734,58004,10006,0
281,280000,55605,11090,52553,13735,58003,10006,0
282,281000,55605,11090,52553,13736,58003,10006,0
283,282000,55605,11090,52553,13737,58002,10006,0
284,283000,55605,11090,52553,13739,58002,10005,0
285,284000,55605,11090,52553,13740,58002,10004,0
286,285000,55605,11090,52553,13740,58002,10003,0
287,286000,55605,11090,52553,13741,58002,10003,0
288,287000,55605,11090,52553,13741,58002,10002,0
289,288000,55605,11090,52553,13740,58003,10002,0
290,289000,55605,11090,52553,13740,58003,10002,0
291,290000,55605,11090,52553,13739,58004,10002,0
292,291000,55605,11090,52554,13738,58004,10002,0
293,292000,55605,11090,52554,13736,58005,10003,0
294,293000,55605,11090,52554,13735,58005,10003,0
295,294000,55605,11090,52553,13734,58005,10004,0
296,295000,55605,11090,52553,13733,58005,10005,0
297,296000,55605,11090,52553,13733,58005,10005,0
298,297000,55605,11090,52553,13733,58005,10006,0
299,298000,55605,11090,52553,13733,58004,10006,0
300,299000,55605,11090,52553,13734,58004,10006,0
301,300000,55605,11090,52553,13735,58003,10006,0
302,301000,55605,11090,52553,13736,58003,10006,0
303,302000,55605,11090,52553,13737,58002,10006,0
304,303000,55605,11090,52553,13739,58002,10005,0
305,304000,55605,11090,52553,13740,58002,10004,0
306,305000,55605,11090,52553,13740,58002,10004,0
307,306000,55605,11090,52553,13741,58002,10003,0
308,307000,55605,11090,52553,13741,58002,10002,0
309,308000,55605,11090,52553,13740,58003,10002,0
310,309000,55605,11090,52553,13740,58003,10002,0
311,310000,55605,11090,52553,13739,58004,10002,0
312,311000,55605,11090,52554,13738,58004,10002,0
313,312000,55605,11090,52554,13736,58005,10003,0
314,313000,55605,11090,52554,13735,58005,10003,0
315,314000,55605,11090,52553,13734,58005,10004,0
316,315000,55605,11090,52553,13734,58005,10005,0
317,316000,55605,11090,52553,13733,58005,10005,0
318,317000,55605,11090,52553,13733,58005,10006,0
319,318000,55605,11090,52553,13733,58004,10006,0
320,319000,55605,11090,52553,13734,58004,10006,0
321,320000,55605,11090,52553,13735,58003,10006,0
322,321000,55605,11090,52553,13736,58003,10006,0
323,322000,55605,11090,52553,13737,58002,10006,0
324,323000,55605,11090,52553,13739,58002,10005,0
325,324000,55605,11090,52553,13740,58002,10004,0
326,325000,55605,11090,52553,13740,58002,10004,0
327,326000,55605,11090,52553,13741,58002,10003,0
328,327000,55605,11090,52553,13741,58002,10002,0
329,328000,55605,11090,52553,13740,58003,10002,0
330,329000,55605,11090,52553,13740,58003,10002,0
331,330000,55605,11090,52553,13739,58004,10002,0
332,331000,55605,11090,52554,13738,58004,10002,0
333,332000,55605,11090,52554,13736,58005,10003,0
334,333000,55605,11090,52554,13735,58005,10003,0
335,334000,55605,11090,52553,13734,58005,10004,0
336,335000,55605,11090,52553,13733,58005,10005,0
337,336000,55605,11090,52553,13733,58005,10005,0
338,337000,55605,11090,52553,13733,58004,10006,0
339,338000,55605,11090,52553,13733,58004,10006,0
340,339000,55605,11090,52553,13734,58004,10006,0
341,340000,55605,11090,52553,13735,58003,10006,0
342,341000,55605,11090,52553,13736,58003,10006,0
343,342000,55605,11090,52553,13737,58002,10006,0
344,343000,55605,11090,52553,13739,58002,10005,0
345,344000,55605,11090,52553,13740,58002,10004,0
346,345000,55605,11090,52553,13740,58002,10004,0
347,346000,55605,11090,52553,13741,58002,10003,0
348,347000,55605,11090,52553,13741,58002,10002,0
349,348000,55605,11090,52553,13740,58003,10002,0
350,349000,55605,11090,52553,13740,58003,10002,0
351,350000,55605,11090,52553,13739,58004,10002,0
352,351000,55605,11090,52554,13738,58004,10002,0
353,352000,55605,11090,52554,13736,58005,10003,0
354,353000,55605,11090,52554,13735,58005,10003,0
355,354000,55605,11090,52553,13734,58005,10004,0
356,355000,55605,11090,52553,13734,58005,10005,0
357,356000,55605,11090,52553,13733,58005,10006,0
358,357000,55605,11090,52553,13733,58004,10006,0
359,358000,55605,11090,52553,13733,58004,10006,0
360,359000,55605,11090,52553,13734,58004,10006,0
361,360000,55605,11090,52553,13735,58003,10006,0
362,361000,55605,11090,52553,13736,58002,10006,0
363,362000,55605,11090,52553,13737,58002,10006,0
364,363000,55605,11090,52553,13739,58002,10005,0
365,364000,55605,11090,52553,13740,58002,10004,0
366,365000,55605,11090,52553,13740,58002,10004,0
367,366000,55605,11090,52553,13741,58002,10003,0
368,367000,55605,11090,52553,13741,58002,10002,0
369,368000,55605,11090,52553,13740,58003,10002,0
370,369000,55605,11090,52553,13740,58003,10002,0
371,370000,55605,11090,52553,13739,58004,10002,0
372,371000,55605,11090,52554,13738,58004,10002,0
373,372000,55605,11090,52554,13736,58005,10003,0
374,373000,55605,11090,52554,13735,58005,10003,0
375,374000,55605,11090,52553,13734,58005,10004,0
376,375000,55605,11090,52553,13734,58005,10005,0
377,376000,55605,11090,52553,13733,58005,10005,0
378,377000,55605,11090,52553,13733,58005,10006,0
379,378000,55605,11090,52553,13733,58004,10006,0
380,379000,55605,11090,52553,13734,58004,10006,0
381,380000,55605,11090,52553,13735,58003,10006,0
382,381000,55605,11090,52553,13736,58002,10006,0
383,382000,55605,11090,52553,13737,58002,10006,0
384,383000,55605,11090,52553,13739,58002,10005,0
385,384000,55605,11090,52553,13740,58002,10004,0
386,385000,55605,11090,52553,13740,58002,10004,0
387,386000,55605,11090,52553,13741,58002,10003,0
388,387000,55605,11090,52553,13741,58002,10002,0
389,388000,55605,11090,52553,13740,58003,10002,0
390,389000,55605,11090,52553,13740,58003,10002,0
391,390000,55605,11090,52553,13739,58004,10002,0
392,391000,55605,11090,52554,13738,58004,10002,0
393,392000,55605,11090,52554,13736,58005,10003,0
394,393000,55605,11090,52554,13735,58005,10003,0
