RTDS Simulation, 0,1999
16,15A,1D
1,IaBus1,,,KA,1.05983E-4,-2.52579,0,0,65535,1.0,1.0,P
2,IbBus1,,,KA,8.9099E-5,-3.24415,0,0,65535,1.0,1.0,P
3,IcBus1,,,KA,9.18733E-5,-3.75338,0,0,65535,1.0,1.0,P
4,IaBus2,,,KA,9.47456E-5,-2.82028,0,0,65535,1.0,1.0,P
5,IbBus2,,,KA,1.06195E-4,-2.80219,0,0,65535,1.0,1.0,P
6,IcBus2,,,KA,9.27284E-5,-3.56113,0,0,65535,1.0,1.0,P
7,IaBus3,,,KA,1.37079E-4,-3.51253,0,0,65535,1.0,1.0,P
8,IbBus3,,,KA,1.067E-4,-3.53936,0,0,65535,1.0,1.0,P
9,IcBus3,,,KA,1.17763E-4,-4.56208,0,0,65535,1.0,1.0,P
10,IaBus4,,,KA,1.67505E-4,-6.6197,0,0,65535,1.0,1.0,P
11,IbBus4,,,KA,1.33408E-4,-4.43561,0,0,65535,1.0,1.0,P
12,IcBus4,,,KA,1.44442E-4,-3.89939,0,0,65535,1.0,1.0,P
13,IaBus5,,,KA,1.67505E-4,-6.6197,0,0,65535,1.0,1.0,P
14,IbBus5,,,KA,1.33408E-4,-4.43561,0,0,65535,1.0,1.0,P
15,IcBus5,,,KA,1.44442E-4,-3.89939,0,0,65535,1.0,1.0,P
1,LGFLT,0,,0
50.0
1
1000.0,2000
02/03/2020,17:44:45.687000
02/03/2020,17:44:46.687000
ASCII
1
1,0,17450,44742,40135,31545,22959,40513,31309,21400,42787,38708,36537,24897,38708,36537,24897,0
2,1000,16405,43111,42923,32509,23075,39396,33283,22488,39503,37959,36600,25708,37959,36600,25708,0
3,2000,16083,40822,45512,33208,23518,38173,34510,24625,36138,37360,36334,26649,37360,36334,26649,0
4,3000,16516,38109,47644,33579,24240,36966,34865,27604,33025,36974,35762,27627,36974,35762,27627,0
5,4000,17668,35226,49112,33578,25166,35905,34310,31125,30480,36837,34947,28538,36837,34947,28538,0
6,5000,19430,32453,49769,33202,26216,35089,32902,34854,28741,36962,33964,29300,36962,33964,29300,0
7,6000,21618,30068,49558,32485,27292,34590,30774,38426,27982,37343,32904,29837,37343,32904,29837,0
8,7000,24021,28307,48493,31509,28275,34462,28143,41477,28282,37935,31880,30094,37935,31880,30094,0
9,8000,26412,27341,46672,30365,29066,34725,25263,43713,29607,38681,30994,30048,38681,30994,30048,0
10,9000,28549,27261,44284,29152,29599,35352,22410,44924,31830,39515,30324,29701,39515,30324,29701,0
11,10000,30222,28075,41565,28001,29820,36274,19875,44980,34730,40349,29942,29087,40349,29942,29087,0
12,11000,31266,29712,38773,27035,29700,37398,17905,43882,38018,41098,29882,28274,41098,29882,28274,0
13,12000,31584,32005,36183,26337,29251,38627,16684,41738,41382,41694,30153,27332,41694,30153,27332,0
14,13000,31146,34723,34053,25972,28523,39836,16337,38757,44488,42078,30727,26355,42078,30727,26355,0
15,14000,29990,37605,32592,25980,27593,40893,16897,35239,47024,42213,31542,25447,42213,31542,25447,0
16,15000,28226,40374,31940,26363,26543,41702,18305,31518,48756,42086,32523,24688,42086,32523,24688,0
17,16000,26040,42754,32153,27083,25470,42194,20429,27955,49511,41705,33580,24155,41705,33580,24155,0
18,17000,23640,44509,33220,28057,24494,42316,23054,24911,49213,41115,34600,23898,41115,34600,23898,0
19,18000,21254,45472,35038,29195,23709,42053,25926,22677,47893,40372,35484,23942,40372,35484,23942,0
20,19000,19121,45554,37421,30401,23179,41428,28775,21463,45679,39540,36153,24287,39540,36153,24287,0
21,20000,17449,44744,40135,31546,22959,40513,31310,21399,42786,38708,36537,24897,38708,36537,24897,0
22,21000,16403,43113,42923,32509,23074,39396,33285,22487,39502,37959,36600,25708,37959,36600,25708,0
23,22000,16081,40823,45514,33209,23517,38172,34512,24624,36137,37360,36334,26649,37360,36334,26649,0
24,23000,16514,38109,47646,33580,24239,36965,34866,27604,33024,36974,35762,27627,36974,35762,27627,0
25,24000,17666,35226,49114,33579,25166,35904,34311,31126,30479,36837,34947,28538,36837,34947,28538,0
26,25000,19429,32452,49771,33202,26216,35088,32902,34855,28740,36962,33964,29300,36962,33964,29300,0
27,26000,21618,30066,49560,32485,27293,34589,30775,38427,27981,37343,32904,29837,37343,32904,29837,0
28,27000,24021,28305,48495,31509,28276,34461,28142,41478,28281,37936,31880,30094,37936,31880,30094,0
29,28000,26412,27339,46674,30365,29066,34724,25262,43715,29607,38681,30994,30048,38681,30994,30048,0
30,29000,28550,27259,44285,29151,29600,35352,22409,44925,31830,39515,30324,29701,39515,30324,29701,0
31,30000,30224,28072,41565,28001,29820,36274,19874,44981,34730,40349,29942,29087,40349,29942,29087,0
32,31000,31268,29710,38772,27035,29701,37398,17903,43883,38019,41098,29883,28274,41098,29883,28274,0
33,32000,31586,32004,36182,26337,29251,38627,16683,41738,41383,41694,30153,27332,41694,30153,27332,0
34,33000,31148,34722,34051,25971,28523,39836,16336,38757,44489,42078,30727,26355,42078,30727,26355,0
35,34000,29991,37605,32589,25979,27593,40893,16896,35238,47026,42212,31542,25447,42212,31542,25447,0
36,35000,28227,40375,31938,26363,26543,41703,18305,31517,48757,42086,32523,24688,42086,32523,24688,0
37,36000,26041,42755,32151,27082,25470,42195,20429,27953,49512,41705,33580,24155,41705,33580,24155,0
38,37000,23640,44511,33218,28057,24493,42317,23054,24910,49214,41114,34600,23898,41114,34600,23898,0
39,38000,21254,45475,35036,29195,23709,42053,25927,22675,47894,40372,35484,23942,40372,35484,23942,0
40,39000,19120,45556,37420,30402,23179,41429,28776,21461,45680,39540,36153,24287,39540,36153,24287,0
41,40000,17447,44747,40135,31547,22958,40513,31312,21397,42786,38708,36537,24897,38708,36537,24897,0
42,41000,16401,43114,42924,32510,23073,39396,33286,22487,39501,37958,36600,25708,37958,36600,25708,0
43,42000,16080,40825,45514,33210,23517,38172,34513,24624,36135,37360,36334,26649,37360,36334,26649,0
44,43000,16512,38109,47648,33581,24239,36965,34867,27604,33022,36974,35762,27627,36974,35762,27627,0
45,44000,17664,35225,49117,33580,25166,35904,34311,31126,30478,36837,34947,28538,36837,34947,28538,0
46,45000,19428,32452,49772,33203,26216,35087,32903,34856,28738,36962,33964,29301,36962,33964,29301,0
47,46000,21617,30064,49563,32486,27293,34588,30775,38429,27980,37343,32904,29836,37343,32904,29836,0
48,47000,24021,28303,48497,31509,28276,34461,28142,41480,28280,37936,31880,30094,37936,31880,30094,0
49,48000,26413,27337,46675,30365,29067,34724,25261,43716,29606,38681,30994,30048,38681,30994,30048,0
50,49000,28551,27256,44286,29151,29600,35351,22409,44927,31829,39515,30324,29700,39515,30324,29700,0
51,50000,30225,28070,41565,28000,29821,36273,19872,44982,34731,40349,29943,29087,40349,29943,29087,0
52,51000,31270,29708,38772,27034,29701,37398,17902,43883,38019,41098,29883,28274,41098,29883,28274,0
53,52000,31588,32003,36181,26336,29252,38628,16682,41739,41384,41694,30153,27332,41694,30153,27332,0
54,53000,31150,34722,34049,25971,28523,39836,16335,38756,44491,42078,30728,26355,42078,30728,26355,0
55,54000,29993,37605,32587,25979,27593,40894,16895,35237,47027,42212,31542,25446,42212,31542,25446,0
56,55000,28228,40376,31935,26362,26543,41704,18305,31516,48758,42086,32523,24688,42086,32523,24688,0
57,56000,26042,42757,32149,27082,25470,42195,20429,27952,49514,41705,33580,24155,41705,33580,24155,0
58,57000,23640,44513,33216,28057,24493,42318,23055,24908,49215,41114,34600,23898,41114,34600,23898,0
59,58000,21253,45477,35034,29196,23708,42054,25928,22674,47894,40372,35484,23942,40372,35484,23942,0
60,59000,19118,45559,37419,30402,23178,41429,28777,21460,45680,39540,36153,24287,39540,36153,24287,0
61,60000,17445,44749,40134,31547,22957,40513,31313,21396,42786,38708,36537,24897,38708,36537,24897,0
62,61000,16399,43116,42924,32511,23073,39396,33287,22486,39500,37958,36600,25708,37958,36600,25708,0
63,62000,16077,40826,45516,33211,23516,38172,34514,24624,36134,37360,36334,26649,37360,36334,26649,0
64,63000,16510,38110,47650,33582,24239,36964,34868,27604,33021,36973,35761,27627,36973,35761,27627,0
65,64000,17663,35225,49118,33581,25166,35903,34312,31127,30476,36837,34947,28538,36837,34947,28538,0
66,65000,19427,32450,49776,33204,26216,35087,32903,34857,28737,36962,33964,29300,36962,33964,29300,0
67,66000,21616,30063,49565,32486,27293,34588,30775,38430,27979,37343,32903,29837,37343,32903,29837,0
68,67000,24021,28301,48499,31510,28276,34460,28142,41481,28279,37936,31880,30094,37936,31880,30094,0
69,68000,26414,27334,46677,30365,29067,34723,25261,43718,29606,38681,30994,30048,38681,30994,30048,0
70,69000,28553,27254,44287,29151,29601,35351,22408,44928,31829,39515,30325,29700,39515,30325,29700,0
71,70000,30227,28068,41566,28000,29822,36273,19871,44984,34730,40349,29943,29087,40349,29943,29087,0
72,71000,31272,29706,38771,27034,29702,37398,17901,43884,38020,41098,29883,28274,41098,29883,28274,0
73,72000,31590,32002,36180,26335,29252,38628,16681,41739,41385,41694,30153,27332,41694,30153,27332,0
74,73000,31152,34721,34048,25970,28524,39837,16334,38756,44492,42078,30728,26355,42078,30728,26355,0
75,74000,29995,37606,32585,25978,27593,40895,16895,35237,47028,42212,31542,25447,42212,31542,25447,0
76,75000,28230,40377,31933,26362,26543,41704,18304,31515,48760,42085,32523,24688,42085,32523,24688,0
77,76000,26042,42759,32146,27082,25469,42196,20429,27951,49515,41705,33581,24155,41705,33581,24155,0
78,77000,23640,44516,33213,28056,24492,42319,23055,24907,49215,41114,34600,23898,41114,34600,23898,0
79,78000,21253,45480,35033,29196,23707,42054,25929,22672,47895,40371,35484,23942,40371,35484,23942,0
80,79000,19117,45561,37418,30403,23177,41430,28778,21458,45680,39540,36153,24288,39540,36153,24288,0
81,80000,17444,44751,40134,31548,22956,40514,31314,21395,42785,38708,36537,24898,38708,36537,24898,0
82,81000,16397,43118,42925,32512,23072,39396,33288,22485,39500,37958,36600,25708,37958,36600,25708,0
83,82000,16075,40827,45517,33212,23516,38171,34515,24623,36133,37360,36334,26649,37360,36334,26649,0
84,83000,16508,38111,47651,33582,24238,36963,34869,27604,33020,36973,35761,27627,36973,35761,27627,0
85,84000,17661,35225,49121,33581,25166,35902,34313,31128,30474,36837,34947,28538,36837,34947,28538,0
86,85000,19426,32449,49778,33204,26216,35086,32904,34858,28736,36962,33964,29300,36962,33964,29300,0
87,86000,21616,30061,49567,32487,27293,34587,30775,38431,27977,37343,32903,29837,37343,32903,29837,0
88,87000,24021,28299,48501,31510,28277,34459,28141,41483,28278,37936,31880,30094,37936,31880,30094,0
89,88000,26414,27332,46679,30365,29068,34722,25260,43719,29605,38681,30994,30048,38681,30994,30048,0
90,89000,28554,27252,44288,29151,29601,35350,22407,44929,31829,39515,30325,29700,39515,30325,29700,0
91,90000,30229,28066,41566,28000,29822,36273,19870,44985,34731,40349,29943,29087,40349,29943,29087,0
92,91000,31274,29705,38771,27033,29702,37398,17900,43885,38020,41098,29883,28274,41098,29883,28274,0
93,92000,31592,32000,36178,26335,29253,38628,16680,41739,41386,41694,30153,27332,41694,30153,27332,0
94,93000,31154,34721,34046,25970,28524,39837,16334,38756,44493,42078,30728,26355,42078,30728,26355,0
95,94000,29996,37606,32583,25978,27593,40895,16894,35236,47030,42212,31543,25447,42212,31543,25447,0
96,95000,28231,40378,31930,26361,26543,41705,18304,31514,48761,42085,32524,24688,42085,32524,24688,0
97,96000,26043,42760,32144,27081,25469,42197,20429,27949,49516,41704,33581,24155,41704,33581,24155,0
98,97000,23640,44518,33211,28056,24492,42319,23056,24905,49216,41114,34600,23898,41114,34600,23898,0
99,98000,21252,45482,35031,29196,23707,42055,25930,22671,47895,40371,35484,23943,40371,35484,23943,0
100,99000,19116,45563,37417,30403,23177,41430,28779,21457,45680,39540,36153,24288,39540,36153,24288,0
101,100000,17442,44753,40134,31548,22956,40514,31315,21394,42785,38708,36537,24898,38708,36537,24898,0
102,101000,16395,43120,42925,32512,23072,39396,33290,22484,39499,37958,36600,25708,37958,36600,25708,0
103,102000,16073,40828,45518,33213,23515,38171,34516,24623,36132,37360,36334,26649,37360,36334,26649,0
104,103000,16507,38111,47653,33583,24238,36963,34870,27604,33018,36973,35761,27628,36973,35761,27628,0
105,104000,17660,35224,49123,33582,25166,35902,34314,31128,30473,36837,34947,28538,36837,34947,28538,0
106,105000,19424,32448,49780,33205,26216,35085,32904,34859,28734,36962,33964,29300,36962,33964,29300,0
107,106000,21615,30060,49569,32487,27294,34586,30775,38432,27976,37343,32903,29837,37343,32903,29837,0
108,107000,24021,28297,48503,31510,28277,34459,28141,41484,28277,37936,31880,30094,37936,31880,30094,0
109,108000,26415,27329,46680,30365,29069,34722,25260,43721,29604,38681,30994,30048,38681,30994,30048,0
110,109000,28555,27249,44289,29151,29602,35350,22406,44930,31829,39515,30325,29700,39515,30325,29700,0
111,110000,30230,28064,41566,27999,29823,36273,19869,44986,34731,40349,29943,29087,40349,29943,29087,0
112,111000,31276,29703,38770,27033,29703,37398,17899,43886,38021,41098,29883,28274,41098,29883,28274,0
113,112000,31594,31999,36177,26334,29253,38628,16679,41739,41387,41694,30153,27331,41694,30153,27331,0
114,113000,31156,34720,34044,25969,28524,39838,16333,38756,44494,42078,30728,26355,42078,30728,26355,0
115,114000,29998,37606,32581,25977,27593,40896,16894,35235,47031,42212,31543,25446,42212,31543,25446,0
116,115000,28232,40379,31928,26361,26542,41705,18304,31513,48762,42085,32524,24688,42085,32524,24688,0
117,116000,26043,42762,32142,27081,25469,42198,20429,27948,49517,41704,33581,24155,41704,33581,24155,0
118,117000,23640,44520,33209,28056,24491,42320,23056,24904,49217,41114,34600,23898,41114,34600,23898,0
119,118000,21251,45484,35030,29196,23706,42055,25930,22669,47896,40371,35484,23943,40371,35484,23943,0
120,119000,19115,45566,37416,30403,23176,41430,28780,21456,45680,39540,36153,24288,39540,36153,24288,0
121,120000,17440,44756,40134,31549,22955,40514,31317,21393,42785,38707,36537,24898,38707,36537,24898,0
122,121000,16393,43122,42926,32513,23071,39396,33291,22483,39498,37958,36600,25708,37958,36600,25708,0
123,122000,16071,40830,45520,33213,23515,38171,34518,24623,36131,37360,36334,26649,37360,36334,26649,0
124,123000,16505,38112,47655,33584,24238,36963,34871,27604,33017,36973,35761,27628,36973,35761,27628,0
125,124000,17658,35224,49125,33583,25166,35901,34314,31129,30472,36837,34946,28539,36837,34946,28539,0
126,125000,19423,32447,49783,33205,26216,35085,32904,34860,28733,36962,33964,29300,36962,33964,29300,0
127,126000,21615,30058,49571,32487,27294,34585,30775,38434,27975,37343,32903,29837,37343,32903,29837,0
128,127000,24021,28295,48505,31510,28278,34458,28141,41485,28276,37936,31880,30094,37936,31880,30094,0
129,128000,26415,27327,46682,30365,29069,34721,25259,43722,29604,38681,30994,30048,38681,30994,30048,0
130,129000,28556,27247,44290,29150,29602,35350,22405,44932,31829,39515,30325,29700,39515,30325,29700,0
131,130000,30232,28061,41566,27999,29823,36272,19868,44987,34731,40349,29943,29087,40349,29943,29087,0
132,131000,31278,29701,38770,27032,29703,37398,17898,43886,38022,41098,29883,28274,41098,29883,28274,0
133,132000,31596,31998,36176,26334,29253,38628,16678,41740,41388,41694,30154,27331,41694,30154,27331,0
134,133000,31158,34720,34043,25968,28524,39838,16332,38756,44495,42077,30728,26355,42077,30728,26355,0
135,134000,30000,37606,32579,25977,27593,40896,16893,35235,47032,42212,31543,25446,42212,31543,25446,0
136,135000,28233,40380,31926,26360,26542,41706,18303,31512,48763,42085,32524,24688,42085,32524,24688,0
137,136000,26044,42763,32140,27081,25468,42198,20429,27947,49518,41704,33581,24155,41704,33581,24155,0
138,137000,23640,44522,33207,28056,24491,42321,23056,24902,49218,41114,34600,23898,41114,34600,23898,0
139,138000,21251,45487,35028,29196,23705,42056,25931,22668,47896,40371,35484,23943,40371,35484,23943,0
140,139000,19114,45568,37415,30404,23175,41431,28781,21454,45680,39539,36153,24288,39539,36153,24288,0
141,140000,17439,44758,40133,31550,22954,40514,31318,21392,42784,38707,36537,24898,38707,36537,24898,0
142,141000,16392,43123,42926,32514,23070,39396,33292,22483,39498,37958,36600,25709,37958,36600,25709,0
143,142000,16069,40831,45521,33214,23514,38171,34519,24622,36130,37360,36334,26650,37360,36334,26650,0
144,143000,16503,38112,47657,33585,24237,36962,34872,27604,33016,36973,35761,27628,36973,35761,27628,0
145,144000,17657,35224,49127,33583,25166,35900,34315,31129,30470,36837,34946,28539,36837,34946,28539,0
146,145000,19422,32446,49785,33206,26217,35084,32905,34861,28732,36962,33963,29300,36962,33963,29300,0
147,146000,21614,30057,49574,32488,27294,34585,30775,38435,27974,37343,32903,29837,37343,32903,29837,0
148,147000,24021,28293,48507,31510,28278,34457,28141,41487,28275,37936,31880,30094,37936,31880,30094,0
149,148000,26416,27325,46683,30365,29069,34721,25259,43723,29603,38682,30994,30048,38682,30994,30048,0
150,149000,28557,27244,44291,29150,29603,35349,22404,44933,31829,39516,30325,29700,39516,30325,29700,0
151,150000,30234,28059,41567,27999,29824,36272,19868,44988,34731,40349,29943,29087,40349,29943,29087,0
152,151000,31280,29699,38770,27032,29704,37398,17897,43887,38022,41098,29883,28273,41098,29883,28273,0
153,152000,31598,31997,36175,26333,29254,38628,16677,41740,41388,41694,30154,27331,41694,30154,27331,0
154,153000,31160,34719,34041,25968,28524,39838,16331,38755,44496,42077,30728,26355,42077,30728,26355,0
155,154000,30001,37606,32577,25976,27593,40897,16893,35234,47033,42212,31543,25446,42212,31543,25446,0
156,155000,28234,40381,31924,26360,26542,41707,18303,31510,48765,42085,32524,24688,42085,32524,24688,0
157,156000,26045,42765,32137,27081,25468,42199,20429,27945,49519,41704,33581,24155,41704,33581,24155,0
158,157000,23640,44524,33205,28056,24490,42321,23057,24901,49219,41113,34601,23898,41113,34601,23898,0
159,158000,21250,45489,35027,29196,23705,42057,25932,22666,47897,40371,35484,23943,40371,35484,23943,0
160,159000,19112,45571,37414,30404,23175,41431,28782,21453,45680,39539,36153,24288,39539,36153,24288,0
161,160000,17437,44760,40133,31550,22954,40514,31319,21390,42784,38707,36537,24898,38707,36537,24898,0
162,161000,16390,43125,42927,32514,23070,39396,33293,22482,39497,37958,36600,25709,37958,36600,25709,0
163,162000,16067,40832,45522,33215,23514,38170,34520,24622,36129,37360,36333,26650,37360,36333,26650,0
164,163000,16501,38113,47658,33585,24237,36962,34873,27605,33015,36973,35761,27628,36973,35761,27628,0
165,164000,17655,35224,49129,33584,25166,35900,34316,31130,30469,36837,34946,28539,36837,34946,28539,0
166,165000,19421,32445,49787,33206,26217,35083,32905,34862,28730,36962,33963,29300,36962,33963,29300,0
167,166000,21613,30055,49576,32488,27295,34584,30775,38436,27973,37343,32903,29837,37343,32903,29837,0
168,167000,24021,28291,48509,31511,28278,34457,28140,41488,28274,37936,31880,30094,37936,31880,30094,0
169,168000,26417,27323,46685,30365,29070,34720,25258,43725,29603,38682,30994,30048,38682,30994,30048,0
170,169000,28558,27242,44292,29150,29604,35349,22404,44934,31828,39516,30325,29700,39516,30325,29700,0
171,170000,30235,28057,41567,27998,29824,36272,19867,44989,34732,40349,29943,29087,40349,29943,29087,0
172,171000,31281,29698,38769,27031,29704,37398,17896,43887,38023,41098,29884,28273,41098,29884,28273,0
173,172000,31600,31996,36174,26333,29254,38628,16676,41740,41389,41694,30154,27331,41694,30154,27331,0
174,173000,31161,34719,34039,25967,28525,39839,16330,38755,44497,42077,30729,26355,42077,30729,26355,0
175,174000,30003,37607,32575,25976,27593,40897,16892,35233,47035,42212,31543,25446,42212,31543,25446,0
176,175000,28236,40382,31921,26360,26542,41707,18303,31509,48766,42085,32524,24688,42085,32524,24688,0
177,176000,26045,42767,32135,27080,25468,42200,20429,27944,49520,41704,33581,24155,41704,33581,24155,0
178,177000,23640,44526,33203,28056,24490,42322,23057,24899,49220,41113,34601,23898,41113,34601,23898,0
179,178000,21249,45491,35025,29197,23704,42057,25933,22665,47897,40371,35484,23943,40371,35484,23943,0
180,179000,19111,45573,37413,30405,23174,41432,28783,21451,45680,39539,36153,24288,39539,36153,24288,0
181,180000,17435,44762,40133,31551,22953,40514,31320,21389,42784,38707,36537,24898,38707,36537,24898,0
182,181000,16388,43127,42927,32515,23069,39396,33295,22481,39496,37958,36600,25709,37958,36600,25709,0
183,182000,16065,40833,45523,33216,23513,38170,34521,24622,36128,37360,36333,26650,37360,36333,26650,0
184,183000,16499,38113,47660,33586,24237,36961,34874,27605,33013,36973,35761,27628,36973,35761,27628,0
185,184000,17653,35224,49131,33585,25165,35899,34316,31131,30468,36837,34946,28539,36837,34946,28539,0
