RTDS Simulation, 0, 1999
6,6A,0D
1,S1) 1,,,kV,0.00847022,-277.548,0,0,65535,1.0,1.0,P
2,S1) 2,,,kV,0.00847196,-277.605,0,0,65535,1.0,1.0,P
3,S1) 3,,,kV,0.0084679,-277.472,0,0,65535,1.0,1.0,P
4,ArtA,,,kA,1.59594E-5,-0.555592,0,0,65535,1.0,1.0,P
5,ArtB,,,kA,7.21839E-5,-1.98382,0,0,65535,1.0,1.0,P
6,ArtC,,,kA,1.57961E-5,-0.518411,0,0,65535,1.0,1.0,P
50.0
1
4000.0,8000
09/04/2019,12:28:45.666000
09/04/2019,12:28:46.266000
ASCII
1
1,0,6661,62975,28658,23172,33923,15147
2,250,8296,63878,26119,21096,33962,17068
3,500,10082,64589,23621,19105,33961,19085
4,750,12008,65104,21179,17210,33919,21187
5,1000,14062,65420,18808,15424,33839,23361
6,1250,16231,65535,16524,13758,33719,25593
7,1500,18502,65447,14340,12221,33560,27870
8,1750,20862,65158,12269,10824,33364,30177
9,2000,23294,64669,10325,9574,33132,32501
10,2250,25785,63984,8519,8481,32865,34826
11,2500,28319,63106,6863,7549,32565,37139
12,2750,30880,62041,5366,6786,32233,39426
13,3000,33453,60796,4038,6196,31872,41671
14,3250,36022,59377,2888,5782,31484,43862
15,3500,38571,57795,1921,5547,31072,45985
16,3750,41084,56058,1145,5492,30637,48026
17,4000,43546,54178,564,5618,30183,49974
18,4250,45941,52166,181,5924,29712,51816
19,4500,48255,50034,0,6409,29228,53541
20,4750,50473,47796,20,7068,28732,55138
21,5000,52583,45465,242,7898,28229,56597
22,5250,54570,43056,664,8895,27722,57910
23,5500,56423,40583,1285,10051,27213,59068
24,5750,58129,38062,2100,11359,26706,60064
25,6000,59680,35509,3103,12813,26203,60892
26,6250,61065,32939,4290,14401,25708,61547
27,6500,62275,30367,5652,16116,25225,62025
28,6750,63303,27811,7182,17946,24755,62323
29,7000,64143,25284,8869,19879,24302,62439
30,7250,64789,22805,10703,21905,23869,62373
31,7500,65239,20386,12674,24010,23458,62124
32,7750,65487,18044,14768,26182,23071,61695
33,8000,65535,15792,16973,28407,22712,61087
34,8250,65380,13646,19276,30672,22383,60306
35,8500,65024,11617,21662,32961,22085,59355
36,8750,64469,9718,24116,35263,21820,58240
37,9000,63719,7962,26624,37561,21590,56969
38,9250,62778,6358,29170,39843,21396,55549
39,9500,61651,4918,31737,42093,21240,53989
40,9750,60347,3649,34311,44299,21122,52298
41,10000,58873,2559,36876,46446,21044,50487
42,10250,57238,1656,39415,48522,21005,48567
43,10500,55452,945,41913,50513,21006,46551
44,10750,53526,430,44355,52407,21047,44449
45,11000,51472,114,46726,54192,21128,42276
46,11250,49303,0,49010,55859,21248,40044
47,11500,47032,87,51194,57395,21406,37768
48,11750,44672,376,53265,58793,21602,35462
49,12000,42240,865,55209,60042,21834,33139
50,12250,39749,1550,57015,61136,22101,30814
51,12500,37215,2428,58671,62068,22401,28501
52,12750,34654,3493,60168,62831,22733,26215
53,13000,32081,4738,61496,63422,23093,23970
54,13250,29512,6157,62646,63837,23481,21779
55,13500,26963,7739,63613,64073,23893,19656
56,13750,24450,9476,64389,64128,24328,17615
57,14000,21989,11356,64970,64003,24782,15666
58,14250,19593,13368,65353,63697,25253,13824
59,14500,17279,15500,65535,63214,25737,12099
60,14750,15061,17738,65514,62555,26232,10501
61,15000,12952,20069,65292,61725,26735,9041
62,15250,10964,22478,64870,60729,27243,7728
63,15500,9112,24951,64249,59574,27752,6569
64,15750,7405,27472,63434,58266,28259,5572
65,16000,5854,30025,62431,56813,28762,4743
66,16250,4469,32595,61244,55224,29257,4087
67,16500,3259,35167,59882,53510,29741,3609
68,16750,2231,37724,58352,51680,30210,3310
69,17000,1391,40250,56665,49746,30664,3194
70,17250,745,42730,54831,47720,31097,3260
71,17500,296,45148,52860,45614,31508,3508
72,17750,47,47490,50766,43442,31895,3937
73,18000,0,49742,48561,41217,32254,4544
74,18250,154,51888,46258,38952,32584,5326
75,18500,510,53917,43872,36661,32882,6277
76,18750,1065,55816,41418,34359,33147,7392
77,19000,1815,57572,38910,32060,33377,8663
78,19250,2756,59176,36365,29777,33571,10084
79,19500,3883,60616,33797,27526,33727,11644
80,19750,5187,61885,31223,25320,33845,13336
81,20000,6661,62975,28658,23172,33923,15147
82,20250,8296,63878,26119,21096,33962,17068
83,20500,10082,64589,23621,19105,33961,19085
84,20750,12008,65104,21179,17210,33919,21187
85,21000,14062,65420,18808,15424,33839,23361
86,21250,16231,65535,16524,13758,33719,25593
87,21500,18502,65447,14340,12221,33560,27870
88,21750,20862,65158,12269,10824,33364,30177
89,22000,23294,64669,10325,9574,33132,32501
90,22250,25785,63984,8519,8481,32865,34826
91,22500,28319,63106,6863,7549,32565,37139
92,22750,30880,62041,5366,6786,32233,39426
93,23000,33453,60796,4038,6196,31872,41671
94,23250,36022,59377,2888,5782,31484,43862
95,23500,38571,57795,1921,5547,31072,45985
96,23750,41084,56058,1145,5492,30637,48026
97,24000,43546,54178,564,5618,30183,49974
98,24250,45941,52166,181,5924,29712,51816
99,24500,48255,50034,0,6409,29228,53541
100,24750,50473,47796,20,7068,28732,55138
101,25000,52583,45465,242,7898,28229,56597
102,25250,54570,43056,664,8895,27722,57910
103,25500,56423,40583,1285,10051,27213,59068
104,25750,58129,38062,2100,11359,26706,60064
105,26000,59680,35509,3103,12813,26203,60892
106,26250,61065,32939,4290,14401,25708,61547
107,26500,62275,30367,5652,16116,25225,62025
108,26750,63303,27811,7182,17946,24755,62323
109,27000,64143,25284,8869,19879,24302,62439
110,27250,64789,22805,10703,21905,23869,62373
111,27500,65239,20386,12674,24010,23458,62124
112,27750,65487,18044,14768,26182,23071,61695
113,28000,65535,15792,16973,28407,22712,61087
114,28250,65380,13646,19276,30672,22383,60306
115,28500,65024,11617,21662,32961,22085,59355
116,28750,64469,9718,24116,35263,21820,58240
117,29000,63719,7962,26624,37561,21590,56969
118,29250,62778,6358,29170,39843,21396,55549
119,29500,61651,4918,31737,42093,21240,53989
120,29750,60347,3649,34311,44299,21122,52298
121,30000,58873,2559,36876,46446,21044,50487
122,30250,57238,1656,39415,48522,21005,48567
123,30500,55452,945,41913,50513,21006,46551
124,30750,53526,430,44355,52407,21047,44449
125,31000,51472,114,46726,54192,21128,42276
126,31250,49303,0,49010,55859,21248,40044
127,31500,47032,87,51194,57395,21406,37768
128,31750,44672,376,53265,58793,21602,35462
129,32000,42240,865,55209,60042,21834,33139
130,32250,39749,1550,57015,61136,22101,30814
131,32500,37215,2428,58671,62068,22401,28501
132,32750,34654,3493,60168,62831,22733,26215
133,33000,32081,4738,61496,63422,23093,23970
134,33250,29512,6157,62646,63837,23481,21779
135,33500,26963,7739,63613,64073,23893,19656
136,33750,24450,9476,64389,64128,24328,17615
137,34000,21989,11356,64970,64003,24782,15666
138,34250,19593,13368,65353,63697,25253,13824
139,34500,17279,15500,65535,63214,25737,12099
140,34750,15061,17738,65514,62555,26232,10501
141,35000,12952,20069,65292,61725,26735,9041
142,35250,10964,22478,64870,60729,27243,7728
143,35500,9112,24951,64249,59574,27752,6569
144,35750,7405,27472,63434,58266,28259,5572
145,36000,5854,30025,62431,56813,28762,4743
146,36250,4469,32595,61244,55224,29257,4088
147,36500,3259,35167,59882,53510,29741,3609
148,36750,2231,37724,58352,51680,30210,3310
149,37000,1391,40250,56665,49746,30664,3194
150,37250,745,42730,54831,47720,31097,3260
151,37500,296,45148,52860,45614,31508,3508
152,37750,47,47490,50766,43442,31895,3937
153,38000,0,49742,48561,41217,32254,4544
154,38250,154,51888,46258,38952,32584,5326
155,38500,510,53917,43872,36661,32882,6277
156,38750,1065,55816,41418,34359,33147,7392
157,39000,1815,57572,38910,32060,33377,8663
158,39250,2756,59176,36365,29777,33571,10084
159,39500,3883,60616,33797,27526,33727,11645
160,39750,5187,61885,31223,25320,33845,13336
161,40000,6661,62975,28658,23172,33923,15147
162,40250,8296,63878,26119,21096,33962,17068
163,40500,10082,64589,23621,19105,33961,19085
164,40750,12008,65104,21179,17210,33919,21187
165,41000,14062,65420,18808,15424,33839,23361
166,41250,16231,65535,16524,13758,33719,25593
167,41500,18502,65447,14340,12221,33560,27870
168,41750,20862,65158,12269,10824,33364,30177
169,42000,23294,64669,10325,9574,33132,32501
170,42250,25785,63984,8519,8481,32865,34826
171,42500,28319,63106,6863,7549,32565,37139
172,42750,30880,62041,5366,6786,32233,39426
173,43000,33453,60796,4038,6196,31872,41671
174,43250,36022,59377,2888,5782,31484,43862
175,43500,38571,57795,1921,5547,31072,45985
176,43750,41084,56058,1145,5492,30637,48026
177,44000,43546,54178,564,5618,30183,49974
178,44250,45941,52166,181,5924,29712,51816
179,44500,48255,50034,0,6409,29228,53541
180,44750,50473,47796,20,7068,28732,55138
181,45000,52583,45465,242,7898,28229,56597
182,45250,54570,43056,664,8895,27722,57910
183,45500,56423,40583,1285,10051,27213,59068
184,45750,58129,38062,2100,11359,26706,60064
185,46000,59680,35509,3103,12813,26203,60892
186,46250,61065,32939,4290,14401,25708,61547
187,46500,62275,30367,5652,16116,25225,62025
188,46750,63303,27811,7182,17946,24755,62323
189,47000,64143,25284,8869,19879,24302,62439
190,47250,64789,22805,10703,21905,23869,62373
191,47500,65239,20386,12674,24010,23458,62124
192,47750,65487,18044,14768,26182,23071,61695
193,48000,65535,15792,16973,28407,22712,61087
194,48250,65380,13646,19276,30672,22383,60306
195,48500,65024,11617,21662,32961,22085,59355
196,48750,64469,9718,24116,35263,21820,58240
197,49000,63719,7962,26624,37561,21590,56969
198,49250,62778,6358,29170,39843,21396,55549
199,49500,61651,4918,31737,42093,21240,53989
200,49750,60347,3649,34311,44299,21122,52298
201,50000,58873,2559,36876,46446,21044,50487
202,50250,57238,1656,39415,48522,21005,48567
203,50500,55452,945,41913,50513,21006,46551
204,50750,53526,430,44355,52407,21047,44449
205,51000,51472,114,46726,54192,21128,42276
206,51250,49303,0,49010,55859,21248,40044
207,51500,47032,87,51194,57395,21406,37768
208,51750,44672,376,53265,58793,21602,35462
209,52000,42240,865,55209,60042,21834,33139
210,52250,39749,1550,57015,61136,22101,30814
211,52500,37215,2428,58671,62068,22401,28501
212,52750,34654,3493,60168,62831,22733,26215
213,53000,32081,4738,61496,63422,23093,23970
214,53250,29512,6157,62646,63837,23481,21779
215,53500,26963,7739,63613,64073,23893,19656
216,53750,24450,9476,64389,64128,24328,17615
217,54000,21989,11356,64970,64003,24782,15666
218,54250,19593,13368,65353,63697,25253,13824
219,54500,17279,15500,65535,63214,25737,12099
220,54750,15061,17738,65514,62555,26232,10501
221,55000,12952,20069,65292,61725,26735,9041
222,55250,10964,22478,64870,60729,27243,7728
223,55500,9112,24951,64249,59574,27752,6569
224,55750,7405,27472,63434,58266,28259,5572
225,56000,5854,30025,62431,56813,28762,4743
226,56250,4469,32595,61244,55224,29257,4087
227,56500,3259,35167,59882,53510,29741,3609
228,56750,2231,37724,58352,51680,30210,3310
229,57000,1391,40250,56665,49746,30664,3194
230,57250,745,42730,54831,47720,31097,3260
231,57500,296,45148,52860,45614,31508,3508
232,57750,47,47490,50766,43442,31895,3937
233,58000,0,49742,48561,41217,32254,4544
234,58250,154,51888,46258,38952,32584,5326
235,58500,510,53917,43872,36661,32882,6277
236,58750,1065,55816,41418,34359,33147,7392
237,59000,1815,57572,38910,32060,33377,8663
238,59250,2756,59176,36365,29777,33571,10084
239,59500,3883,60616,33797,27526,33727,11645
240,59750,5187,61885,31223,25320,33845,13336
241,60000,6661,62975,28658,23172,33923,15147
242,60250,8296,63878,26119,21096,33962,17068
243,60500,10082,64589,23621,19105,33961,19085
244,60750,12008,65104,21179,17210,33919,21187
245,61000,14062,65420,18808,15424,33839,23361
246,61250,16231,65535,16524,13758,33719,25593
247,61500,18502,65447,14340,12221,33560,27870
248,61750,20862,65158,12269,10824,33364,30177
249,62000,23294,64669,10325,9574,33132,32501
250,62250,25785,63984,8519,8481,32865,34826
251,62500,28319,63106,6863,7549,32565,37139
252,62750,30880,62041,5366,6786,32233,39426
253,63000,33453,60796,4038,6196,31872,41671
254,63250,36022,59377,2888,5782,31484,43862
255,63500,38571,57795,1921,5547,31072,45985
256,63750,41084,56058,1145,5492,30637,48026
257,64000,43546,54178,564,5618,30183,49974
258,64250,45941,52166,181,5924,29712,51816
259,64500,48255,50034,0,6409,29228,53541
260,64750,50473,47796,20,7068,28732,55138
261,65000,52583,45465,242,7898,28229,56597
262,65250,54570,43056,664,8895,27722,57910
263,65500,56423,40583,1285,10051,27213,59068
264,65750,58129,38062,2100,11359,26706,60064
265,66000,59680,35509,3103,12813,26203,60892
266,66250,61065,32939,4290,14401,25708,61547
267,66500,62275,30367,5652,16116,25225,62025
268,66750,63303,27811,7182,17946,24755,62323
269,67000,64143,25284,8869,19879,24302,62439
270,67250,64789,22805,10703,21905,23869,62373
271,67500,65239,20386,12674,24010,23458,62124
272,67750,65487,18044,14768,26182,23071,61695
273,68000,65535,15792,16973,28407,22712,61087
274,68250,65380,13646,19276,30672,22383,60306
275,68500,65024,11617,21662,32961,22085,59355
276,68750,64469,9718,24116,35263,21820,58240
277,69000,63719,7962,26624,37561,21590,56969
278,69250,62778,6358,29170,39843,21396,55549
279,69500,61651,4918,31737,42093,21240,53989
280,69750,60347,3649,34311,44299,21122,52298
281,70000,58873,2559,36876,46446,21044,50487
282,70250,57238,1656,39415,48522,21005,48567
283,70500,55452,945,41913,50513,21006,46551
284,70750,53526,430,44355,52407,21047,44449
285,71000,51472,114,46726,54192,21128,42276
286,71250,49303,0,49010,55859,21248,40044
287,71500,47032,87,51194,57395,21406,37768
288,71750,44672,376,53265,58793,21602,35462
289,72000,42240,865,55209,60042,21834,33139
290,72250,39749,1550,57015,61136,22101,30814
291,72500,37215,2428,58671,62068,22401,28501
292,72750,34654,3493,60168,62832,22733,26215
293,73000,32081,4738,61496,63422,23093,23970
294,73250,29512,6157,62646,63837,23481,21779
295,73500,26963,7739,63613,64073,23893,19656
296,73750,24450,9476,64389,64128,24328,17615
297,74000,21989,11356,64970,64003,24782,15666
298,74250,19593,13368,65353,63697,25253,13824
299,74500,17279,15500,65535,63214,25737,12099
300,74750,15061,17738,65514,62555,26232,10501
301,75000,12952,20069,65292,61725,26735,9041
302,75250,10964,22478,64870,60729,27243,7728
303,75500,9112,24951,64249,59574,27752,6569
304,75750,7405,27472,63434,58266,28259,5572
305,76000,5854,30025,62431,56813,28762,4743
306,76250,4469,32595,61244,55224,29257,4088
307,76500,3259,35167,59882,53510,29741,3609
308,76750,2231,37724,58352,51680,30210,3310
309,77000,1391,40250,56665,49746,30664,3194
310,77250,745,42730,54831,47720,31097,3260
311,77500,296,45148,52860,45614,31508,3508
312,77750,47,47490,50766,43442,31895,3937
313,78000,0,49742,48561,41217,32254,4544
314,78250,154,51888,46258,38952,32584,5326
315,78500,510,53917,43872,36661,32882,6277
316,78750,1065,55816,41418,34359,33147,7392
317,79000,1815,57572,38910,32060,33377,8663
318,79250,2756,59176,36365,29777,33571,10084
319,79500,3883,60616,33797,27526,33727,11645
320,79750,5187,61885,31223,25320,33845,13336
321,80000,6661,62975,28658,23172,33923,15147
322,80250,8296,63878,26119,21096,33962,17068
323,80500,10082,64589,23621,19105,33961,19085
324,80750,12008,65104,21179,17210,33919,21187
325,81000,14062,65420,18808,15424,33839,23361
326,81250,16231,65535,16524,13758,33719,25593
327,81500,18502,65447,14340,12221,33560,27870
328,81750,20862,65158,12269,10824,33364,30177
329,82000,23294,64669,10325,9574,33132,32501
330,82250,25785,63984,8519,8481,32865,34826
331,82500,28319,63106,6863,7549,32565,37139
332,82750,30880,62041,5366,6786,32233,39426
333,83000,33453,60796,4038,6196,31872,41671
334,83250,36022,59377,2888,5782,31484,43862
335,83500,38571,57795,1921,5547,31072,45985
336,83750,41084,56058,1145,5492,30637,48026
337,84000,43546,54178,564,5618,30183,49974
338,84250,45941,52166,181,5924,29712,51816
339,84500,48255,50034,0,6409,29228,53541
340,84750,50473,47796,20,7068,28732,55138
341,85000,52583,45465,242,7898,28229,56597
342,85250,54570,43056,664,8895,27722,57910
343,85500,56423,40583,1285,10051,27213,59068
344,85750,58129,38062,2100,11359,26706,60064
345,86000,59680,35509,3103,12813,26203,60892
346,86250,61065,32939,4290,14401,25708,61547
347,86500,62275,30367,5652,16116,25225,62025
348,86750,63303,27811,7182,17946,24755,62323
349,87000,64143,25284,8869,19879,24302,62439
350,87250,64789,22805,10703,21905,23869,62373
351,87500,65239,20386,12674,24010,23458,62124
352,87750,65487,18044,14768,26182,23071,61695
353,88000,65535,15792,16973,28407,22712,61087
354,88250,65380,13646,19276,30672,22383,60306
355,88500,65024,11617,21662,32961,22085,59355
356,88750,64469,9718,24116,35263,21820,58240
357,89000,63719,7962,26624,37561,21590,56969
358,89250,62778,6358,29170,39843,21396,55549
359,89500,61651,4918,31737,42093,21240,53989
360,89750,60347,3649,34311,44299,21122,52298
361,90000,58873,2559,36876,46446,21044,50487
362,90250,57238,1656,39415,48522,21005,48567
363,90500,55452,945,41913,50513,21006,46551
364,90750,53526,430,44355,52407,21047,44449
365,91000,51472,114,46726,54192,21128,42276
366,91250,49303,0,49010,55859,21248,40044
367,91500,47032,87,51194,57395,21406,37768
368,91750,44672,376,53265,58793,21602,35462
369,92000,42240,865,55209,60042,21834,33139
370,92250,39749,1550,57015,61136,22101,30814
371,92500,37215,2428,58671,62068,22401,28501
372,92750,34654,3493,60168,62832,22733,26215
373,93000,32081,4738,61496,63422,23093,23970
374,93250,29512,6157,62646,63837,23481,21779
375,93500,26963,7739,63613,64073,23893,19656
376,93750,24450,9476,64389,64128,24328,17615
377,94000,21989,11356,64970,64003,24782,15666
378,94250,19593,13368,65353,63697,25253,13824
379,94500,17279,15500,65535,63214,25737,12099
380,94750,15061,17738,65514,62555,26232,10501
381,95000,12952,20069,65292,61725,26735,9041
382,95250,10964,22478,64870,60729,27243,7728
383,95500,9112,24951,64249,59574,27752,6569
384,95750,7405,27472,63434,58266,28259,5572
385,96000,5854,30025,62431,56813,28762,4743
386,96250,4469,32595,61244,55224,29257,4088
387,96500,3259,35167,59882,53510,29741,3609
388,96750,2231,37724,58352,51680,30210,3310
389,97000,1391,40250,56665,49746,30664,3194
390,97250,745,42730,54831,47720,31097,3260
391,97500,296,45148,52860,45614,31508,3508
392,97750,47,47490,50766,43442,31895,3937
393,98000,0,49742,48561,41217,32254,4544
394,98250,154,51888,46258,38952,32584,5326
395,98500,510,53917,43872,36661,32882,6277
396,98750,1065,55816,41418,34359,33147,7392
397,99000,1815,57572,38910,32060,33377,8663
398,99250,2756,59176,36365,29777,33571,10084
399,99500,3883,60616,33797,27526,33727,11645
400,99750,5187,61885,31223,25320,33845,13336
401,100000,6661,62975,28658,23172,33923,15147
402,100250,8296,63878,26119,21096,33962,17068
403,100500,10082,64589,23621,19105,33961,19085
404,100750,12008,65104,21179,17210,33919,21187
405,101000,14062,65420,18808,15424,33839,23361
406,101250,16231,65535,16524,13758,33719,25593
407,101500,18502,65447,14340,12221,33560,27870
408,101750,20862,65158,12269,10824,33364,30177
409,102000,23294,64669,10325,9574,33132,32501
410,102250,25785,63984,8519,8481,32865,34826
411,102500,28319,63106,6863,7549,32565,37139
412,102750,30880,62041,5366,6786,32233,39426
413,103000,33453,60796,4038,6196,31872,41671
414,103250,36022,59377,2888,5782,31484,43862
415,103500,38571,57795,1921,5547,31072,45985
416,103750,41084,56058,1145,5492,30637,48026
417,104000,43546,54178,564,5618,30183,49974
418,104250,45941,52166,181,5924,29712,51816
419,104500,48255,50034,0,6409,29228,53541
420,104750,50473,47796,20,7068,28732,55138
421,105000,52583,45465,242,7898,28229,56597
422,105250,54570,43056,664,8895,27722,57910
423,105500,56423,40583,1285,10051,27213,59068
424,105750,58129,38062,2100,11359,26706,60064
425,106000,59680,35509,3103,12813,26203,60892
426,106250,61065,32939,4290,14401,25708,61547
427,106500,62275,30367,5652,16116,25225,62025
428,106750,63303,27811,7182,17946,24755,62323
429,107000,64143,25284,8869,19879,24302,62439
430,107250,64789,22805,10703,21905,23869,62373
431,107500,65239,20386,12674,24010,23458,62124
432,107750,65487,18044,14768,26182,23071,61695
433,108000,65535,15792,16973,28407,22712,61087
434,108250,65380,13646,19276,30672,22383,60306
435,108500,65024,11617,21662,32961,22085,59355
436,108750,64469,9718,24116,35263,21820,58240
437,109000,63719,7962,26624,37561,21590,56969
438,109250,62778,6358,29170,39843,21396,55549
439,109500,61651,4918,31737,42093,21240,53989
440,109750,60347,3649,34311,44299,21122,52298
441,110000,58873,2559,36876,46446,21044,50487
442,110250,57238,1656,39415,48522,21005,48567
